!Agilent Technologies,E5071C,MY46107164,A.09.30
!Date: Mon Jan 01 00:17:23 2001
!Data & Calibration Information:
!Freq	S11:SOLT1(ON)
# Hz S dB R 50
100000	-6.196840e-002	-1.287477e+000
7618546	-2.275688e-002	-2.955847e+000
15137093	-6.699871e-002	-5.711225e+000
22655639	-1.346539e-001	-8.437311e+000
30174185	-2.242825e-001	-1.109662e+001
37692732	-3.313404e-001	-1.363803e+001
45211278	-4.568431e-001	-1.611802e+001
52729825	-5.971048e-001	-1.847846e+001
60248371	-7.565386e-001	-2.074833e+001
67766917	-9.122403e-001	-2.291386e+001
75285464	-1.086574e+000	-2.496420e+001
82804010	-1.260326e+000	-2.689951e+001
90322556	-1.443532e+000	-2.870052e+001
97841103	-1.625372e+000	-3.041448e+001
105359649	-1.815552e+000	-3.209842e+001
112878195	-1.999643e+000	-3.359218e+001
120396742	-2.183508e+000	-3.504991e+001
127915288	-2.363988e+000	-3.644658e+001
135433835	-2.535932e+000	-3.768129e+001
142952381	-2.706706e+000	-3.894458e+001
150470927	-2.884229e+000	-4.008619e+001
157989474	-3.045376e+000	-4.133545e+001
165508020	-3.211491e+000	-4.234223e+001
173026566	-3.371438e+000	-4.332651e+001
180545113	-3.522906e+000	-4.431444e+001
188063659	-3.678732e+000	-4.522747e+001
195582206	-3.818785e+000	-4.617646e+001
203100752	-3.967637e+000	-4.707772e+001
210619298	-4.101127e+000	-4.787112e+001
218137845	-4.237089e+000	-4.874064e+001
225656391	-4.363274e+000	-4.945673e+001
233174937	-4.482818e+000	-5.030141e+001
240693484	-4.607509e+000	-5.106729e+001
248212030	-4.710236e+000	-5.179373e+001
255730576	-4.824719e+000	-5.256931e+001
263249123	-4.944055e+000	-5.324689e+001
270767669	-5.046253e+000	-5.396035e+001
278286216	-5.149560e+000	-5.466370e+001
285804762	-5.257402e+000	-5.541636e+001
293323308	-5.337381e+000	-5.609959e+001
300841855	-5.442285e+000	-5.675165e+001
308360401	-5.521224e+000	-5.756699e+001
315878947	-5.627916e+000	-5.810477e+001
323397494	-5.694590e+000	-5.887044e+001
330916040	-5.762482e+000	-5.952548e+001
338434586	-5.873891e+000	-6.021034e+001
345953133	-5.951821e+000	-6.080129e+001
353471679	-6.023829e+000	-6.144203e+001
360990226	-6.101397e+000	-6.221807e+001
368508772	-6.179609e+000	-6.287258e+001
376027318	-6.248816e+000	-6.352817e+001
383545865	-6.321591e+000	-6.425563e+001
391064411	-6.397654e+000	-6.499656e+001
398582957	-6.459544e+000	-6.561317e+001
406101504	-6.517326e+000	-6.640733e+001
413620050	-6.597675e+000	-6.706845e+001
421138596	-6.653700e+000	-6.776264e+001
428657143	-6.714912e+000	-6.839481e+001
436175689	-6.773201e+000	-6.915524e+001
443694236	-6.850101e+000	-6.973913e+001
451212782	-6.900196e+000	-7.049979e+001
458731328	-6.960284e+000	-7.117488e+001
466249875	-7.020168e+000	-7.189495e+001
473768421	-7.089334e+000	-7.259095e+001
481286967	-7.139929e+000	-7.332768e+001
488805514	-7.194201e+000	-7.409219e+001
496324060	-7.242255e+000	-7.479906e+001
503842607	-7.304612e+000	-7.542990e+001
511361153	-7.371762e+000	-7.613446e+001
518879699	-7.413835e+000	-7.691911e+001
526398246	-7.483442e+000	-7.757385e+001
533916792	-7.542854e+000	-7.833496e+001
541435338	-7.606174e+000	-7.910146e+001
548953885	-7.641662e+000	-7.981949e+001
556472431	-7.700909e+000	-8.061347e+001
563990977	-7.734477e+000	-8.141720e+001
571509524	-7.809811e+000	-8.208905e+001
579028070	-7.846497e+000	-8.282062e+001
586546617	-7.904086e+000	-8.366519e+001
594065163	-7.953000e+000	-8.440517e+001
601583709	-8.009187e+000	-8.518935e+001
609102256	-8.063372e+000	-8.596135e+001
616620802	-8.121041e+000	-8.663138e+001
624139348	-8.181754e+000	-8.739531e+001
631657895	-8.235075e+000	-8.825933e+001
639176441	-8.272770e+000	-8.912786e+001
646694987	-8.340303e+000	-8.984404e+001
654213534	-8.378917e+000	-9.053138e+001
661732080	-8.438184e+000	-9.135132e+001
669250627	-8.496866e+000	-9.213042e+001
676769173	-8.536829e+000	-9.287234e+001
684287719	-8.596607e+000	-9.374682e+001
691806266	-8.643953e+000	-9.451150e+001
699324812	-8.722007e+000	-9.531306e+001
706843358	-8.751671e+000	-9.617535e+001
714361905	-8.833291e+000	-9.700107e+001
721880451	-8.876480e+000	-9.773071e+001
729398997	-8.927371e+000	-9.862305e+001
736917544	-8.962331e+000	-9.939716e+001
744436090	-9.041752e+000	-1.002242e+002
751954637	-9.081902e+000	-1.010372e+002
759473183	-9.131493e+000	-1.018341e+002
766991729	-9.189055e+000	-1.026910e+002
774510276	-9.263517e+000	-1.035271e+002
782028822	-9.312620e+000	-1.042789e+002
789547368	-9.410921e+000	-1.050094e+002
797065915	-9.445405e+000	-1.059838e+002
804584461	-9.484109e+000	-1.067543e+002
812103008	-9.550727e+000	-1.076382e+002
819621554	-9.612997e+000	-1.085356e+002
827140100	-9.663177e+000	-1.093383e+002
834658647	-9.727966e+000	-1.101755e+002
842177193	-9.779972e+000	-1.109823e+002
849695739	-9.837789e+000	-1.118391e+002
857214286	-9.900873e+000	-1.126401e+002
864732832	-9.974019e+000	-1.135439e+002
872251378	-1.003523e+001	-1.143780e+002
879769925	-1.008652e+001	-1.152140e+002
887288471	-1.015362e+001	-1.161571e+002
894807018	-1.022657e+001	-1.169848e+002
902325564	-1.026378e+001	-1.178538e+002
909844110	-1.033543e+001	-1.187378e+002
917362657	-1.040170e+001	-1.194495e+002
924881203	-1.047445e+001	-1.204150e+002
932399749	-1.054397e+001	-1.212328e+002
939918296	-1.061768e+001	-1.220948e+002
947436842	-1.066186e+001	-1.228625e+002
954955388	-1.074657e+001	-1.238287e+002
962473935	-1.077490e+001	-1.246767e+002
969992481	-1.086642e+001	-1.255245e+002
977511028	-1.093844e+001	-1.264383e+002
985029574	-1.099666e+001	-1.273453e+002
992548120	-1.106293e+001	-1.281757e+002
1000066667	-1.112809e+001	-1.290555e+002
1007585213	-1.119357e+001	-1.299492e+002
1015103759	-1.126928e+001	-1.308606e+002
1022622306	-1.134206e+001	-1.318396e+002
1030140852	-1.140654e+001	-1.327957e+002
1037659398	-1.148173e+001	-1.337081e+002
1045177945	-1.156458e+001	-1.347404e+002
1052696491	-1.164214e+001	-1.355056e+002
1060215038	-1.171036e+001	-1.365509e+002
1067733584	-1.177260e+001	-1.374894e+002
1075252130	-1.186593e+001	-1.384609e+002
1082770677	-1.193982e+001	-1.394270e+002
1090289223	-1.201630e+001	-1.403070e+002
1097807769	-1.208900e+001	-1.411843e+002
1105326316	-1.215343e+001	-1.420882e+002
1112844862	-1.223543e+001	-1.431074e+002
1120363409	-1.233230e+001	-1.440709e+002
1127881955	-1.237822e+001	-1.450819e+002
1135400501	-1.246755e+001	-1.460902e+002
1142919048	-1.253422e+001	-1.471980e+002
1150437594	-1.263039e+001	-1.481835e+002
1157956140	-1.271497e+001	-1.491648e+002
1165474687	-1.279090e+001	-1.500806e+002
1172993233	-1.285844e+001	-1.511244e+002
1180511779	-1.296970e+001	-1.521536e+002
1188030326	-1.304222e+001	-1.533505e+002
1195548872	-1.312376e+001	-1.542674e+002
1203067419	-1.322026e+001	-1.554545e+002
1210585965	-1.330479e+001	-1.564543e+002
1218104511	-1.339100e+001	-1.576448e+002
1225623058	-1.347813e+001	-1.587382e+002
1233141604	-1.359331e+001	-1.599854e+002
1240660150	-1.368291e+001	-1.610919e+002
1248178697	-1.376144e+001	-1.620764e+002
1255697243	-1.388744e+001	-1.632091e+002
1263215789	-1.397723e+001	-1.642433e+002
1270734336	-1.409743e+001	-1.653814e+002
1278252882	-1.418670e+001	-1.665133e+002
1285771429	-1.433183e+001	-1.675301e+002
1293289975	-1.445574e+001	-1.688358e+002
1300808521	-1.452826e+001	-1.699746e+002
1308327068	-1.465783e+001	-1.711147e+002
1315845614	-1.477493e+001	-1.724298e+002
1323364160	-1.490484e+001	-1.733155e+002
1330882707	-1.504483e+001	-1.747714e+002
1338401253	-1.517255e+001	-1.757462e+002
1345919799	-1.529040e+001	-1.770567e+002
1353438346	-1.543980e+001	-1.784853e+002
1360956892	-1.554397e+001	-1.795394e+002
1368475439	-1.567485e+001	1.793103e+002
1375993985	-1.580302e+001	1.782920e+002
1383512531	-1.594004e+001	1.771029e+002
1391031078	-1.608030e+001	1.758068e+002
1398549624	-1.623868e+001	1.745695e+002
1406068170	-1.639013e+001	1.734422e+002
1413586717	-1.650165e+001	1.722900e+002
1421105263	-1.667259e+001	1.708776e+002
1428623810	-1.676726e+001	1.695036e+002
1436142356	-1.694025e+001	1.683638e+002
1443660902	-1.708447e+001	1.670537e+002
1451179449	-1.723202e+001	1.655118e+002
1458697995	-1.739998e+001	1.642394e+002
1466216541	-1.758312e+001	1.630670e+002
1473735088	-1.772290e+001	1.619951e+002
1481253634	-1.787109e+001	1.604062e+002
1488772180	-1.805880e+001	1.591308e+002
1496290727	-1.822403e+001	1.580591e+002
1503809273	-1.841027e+001	1.566010e+002
1511327820	-1.864462e+001	1.553693e+002
1518846366	-1.879777e+001	1.539327e+002
1526364912	-1.896999e+001	1.529381e+002
1533883459	-1.918357e+001	1.515361e+002
1541402005	-1.939623e+001	1.502143e+002
1548920551	-1.957333e+001	1.487496e+002
1556439098	-1.981488e+001	1.475006e+002
1563957644	-1.998739e+001	1.459062e+002
1571476190	-2.023796e+001	1.453561e+002
1578994737	-2.040148e+001	1.441959e+002
1586513283	-2.063969e+001	1.432218e+002
1594031830	-2.085882e+001	1.422605e+002
1601550376	-2.106705e+001	1.423340e+002
1609068922	-2.117659e+001	1.420307e+002
1616587469	-2.125532e+001	1.419699e+002
1624106015	-2.125699e+001	1.424080e+002
1631624561	-2.106492e+001	1.431786e+002
1639143108	-2.066159e+001	1.428945e+002
1646661654	-2.013569e+001	1.407207e+002
1654180201	-1.970941e+001	1.360416e+002
1661698747	-1.948026e+001	1.301808e+002
1669217293	-1.957833e+001	1.239347e+002
1676735840	-1.982825e+001	1.192996e+002
1684254386	-2.013662e+001	1.144280e+002
1691772932	-2.041533e+001	1.108029e+002
1699291479	-2.081697e+001	1.072088e+002
1706810025	-2.114401e+001	1.047170e+002
1714328571	-2.144690e+001	1.015953e+002
1721847118	-2.172236e+001	9.859941e+001
1729365664	-2.196797e+001	9.581612e+001
1736884211	-2.220612e+001	9.290702e+001
1744402757	-2.243987e+001	8.955690e+001
1751921303	-2.268722e+001	8.670156e+001
1759439850	-2.269826e+001	8.397857e+001
1766958396	-2.284979e+001	8.076378e+001
1774476942	-2.308121e+001	7.794250e+001
1781995489	-2.317379e+001	7.536682e+001
1789514035	-2.334224e+001	7.257535e+001
1797032581	-2.347776e+001	6.942862e+001
1804551128	-2.357196e+001	6.611455e+001
1812069674	-2.374562e+001	6.371405e+001
1819588221	-2.378128e+001	6.009463e+001
1827106767	-2.378722e+001	5.692146e+001
1834625313	-2.379745e+001	5.327737e+001
1842143860	-2.385138e+001	5.071893e+001
1849662406	-2.384679e+001	4.795722e+001
1857180952	-2.379780e+001	4.432865e+001
1864699499	-2.380941e+001	4.160846e+001
1872218045	-2.376971e+001	3.878222e+001
1879736591	-2.378585e+001	3.574387e+001
1887255138	-2.376503e+001	3.246331e+001
1894773684	-2.373327e+001	2.958727e+001
1902292231	-2.367623e+001	2.643845e+001
1909810777	-2.351095e+001	2.329359e+001
1917329323	-2.338757e+001	2.062096e+001
1924847870	-2.328301e+001	1.780129e+001
1932366416	-2.308332e+001	1.522049e+001
1939884962	-2.298258e+001	1.302572e+001
1947403509	-2.287676e+001	9.606025e+000
1954922055	-2.277412e+001	7.546762e+000
1962440602	-2.264651e+001	4.742679e+000
1969959148	-2.252154e+001	2.617486e+000
1977477694	-2.241225e+001	-5.533474e-001
1984996241	-2.222572e+001	-2.331153e+000
1992514787	-2.201516e+001	-5.247118e+000
2000033333	-2.183594e+001	-7.127479e+000
2007551880	-2.163234e+001	-8.874121e+000
2015070426	-2.146373e+001	-1.109674e+001
2022588972	-2.138680e+001	-1.286667e+001
2030107519	-2.125099e+001	-1.456884e+001
2037626065	-2.112051e+001	-1.657949e+001
2045144612	-2.098961e+001	-1.878522e+001
2052663158	-2.092107e+001	-2.103617e+001
2060181704	-2.073480e+001	-2.348383e+001
2067700251	-2.053392e+001	-2.531507e+001
2075218797	-2.037444e+001	-2.699828e+001
2082737343	-2.019019e+001	-2.934841e+001
2090255890	-2.003965e+001	-3.064544e+001
2097774436	-1.986897e+001	-3.236997e+001
2105292982	-1.978745e+001	-3.352408e+001
2112811529	-1.966653e+001	-3.508762e+001
2120330075	-1.947518e+001	-3.699794e+001
2127848622	-1.936885e+001	-3.853662e+001
2135367168	-1.929220e+001	-4.049398e+001
2142885714	-1.914708e+001	-4.239754e+001
2150404261	-1.893165e+001	-4.377540e+001
2157922807	-1.882854e+001	-4.531185e+001
2165441353	-1.869551e+001	-4.646705e+001
2172959900	-1.850670e+001	-4.793736e+001
2180478446	-1.844284e+001	-4.922134e+001
2187996992	-1.839151e+001	-5.057706e+001
2195515539	-1.823286e+001	-5.243358e+001
2203034085	-1.815426e+001	-5.390863e+001
2210552632	-1.804882e+001	-5.539360e+001
2218071178	-1.791632e+001	-5.682464e+001
2225589724	-1.778928e+001	-5.842478e+001
2233108271	-1.768818e+001	-5.987190e+001
2240626817	-1.753748e+001	-6.110678e+001
2248145363	-1.740566e+001	-6.253575e+001
2255663910	-1.731749e+001	-6.377264e+001
2263182456	-1.718633e+001	-6.493926e+001
2270701003	-1.710416e+001	-6.621811e+001
2278219549	-1.701316e+001	-6.765729e+001
2285738095	-1.690888e+001	-6.900268e+001
2293256642	-1.682291e+001	-7.036827e+001
2300775188	-1.670691e+001	-7.154428e+001
2308293734	-1.658647e+001	-7.274153e+001
2315812281	-1.652312e+001	-7.416826e+001
2323330827	-1.641405e+001	-7.525892e+001
2330849373	-1.634472e+001	-7.680785e+001
2338367920	-1.621491e+001	-7.784466e+001
2345886466	-1.612762e+001	-7.916525e+001
2353405013	-1.605274e+001	-8.005524e+001
2360923559	-1.593695e+001	-8.118979e+001
2368442105	-1.585519e+001	-8.277915e+001
2375960652	-1.578044e+001	-8.369800e+001
2383479198	-1.570553e+001	-8.494014e+001
2390997744	-1.560789e+001	-8.605079e+001
2398516291	-1.554532e+001	-8.684975e+001
2406034837	-1.542918e+001	-8.833076e+001
2413553383	-1.536426e+001	-8.928584e+001
2421071930	-1.530420e+001	-9.067522e+001
2428590476	-1.523557e+001	-9.169840e+001
2436109023	-1.514034e+001	-9.290353e+001
2443627569	-1.505876e+001	-9.401399e+001
2451146115	-1.495943e+001	-9.531748e+001
2458664662	-1.487284e+001	-9.628599e+001
2466183208	-1.481351e+001	-9.744472e+001
2473701754	-1.472408e+001	-9.846792e+001
2481220301	-1.463492e+001	-9.960544e+001
2488738847	-1.457037e+001	-1.007249e+002
2496257393	-1.453507e+001	-1.018059e+002
2503775940	-1.445363e+001	-1.029573e+002
2511294486	-1.436808e+001	-1.041422e+002
2518813033	-1.428013e+001	-1.054598e+002
2526331579	-1.421758e+001	-1.066568e+002
2533850125	-1.413228e+001	-1.075526e+002
2541368672	-1.406817e+001	-1.085255e+002
2548887218	-1.398929e+001	-1.094623e+002
2556405764	-1.392608e+001	-1.104465e+002
2563924311	-1.383531e+001	-1.114931e+002
2571442857	-1.377913e+001	-1.124784e+002
2578961404	-1.375509e+001	-1.135254e+002
2586479950	-1.371816e+001	-1.146300e+002
2593998496	-1.365410e+001	-1.156340e+002
2601517043	-1.356825e+001	-1.169539e+002
2609035589	-1.351599e+001	-1.180742e+002
2616554135	-1.341555e+001	-1.191957e+002
2624072682	-1.334153e+001	-1.201173e+002
2631591228	-1.325567e+001	-1.209979e+002
2639109774	-1.319263e+001	-1.220045e+002
2646628321	-1.314651e+001	-1.229511e+002
2654146867	-1.312047e+001	-1.239686e+002
2661665414	-1.304150e+001	-1.249825e+002
2669183960	-1.299722e+001	-1.259741e+002
2676702506	-1.296269e+001	-1.268620e+002
2684221053	-1.290561e+001	-1.281868e+002
2691739599	-1.280274e+001	-1.292542e+002
2699258145	-1.272857e+001	-1.300329e+002
2706776692	-1.265092e+001	-1.309801e+002
2714295238	-1.259710e+001	-1.318966e+002
2721813784	-1.256395e+001	-1.328149e+002
2729332331	-1.250363e+001	-1.338433e+002
2736850877	-1.246372e+001	-1.346886e+002
2744369424	-1.243174e+001	-1.357586e+002
2751887970	-1.239452e+001	-1.368964e+002
2759406516	-1.232779e+001	-1.378270e+002
2766925063	-1.228486e+001	-1.387957e+002
2774443609	-1.220123e+001	-1.399002e+002
2781962155	-1.213302e+001	-1.409462e+002
2789480702	-1.207235e+001	-1.418321e+002
2796999248	-1.199306e+001	-1.428466e+002
2804517794	-1.194514e+001	-1.437312e+002
2812036341	-1.191172e+001	-1.444500e+002
2819554887	-1.187633e+001	-1.454850e+002
2827073434	-1.180436e+001	-1.463621e+002
2834591980	-1.174661e+001	-1.473709e+002
2842110526	-1.169647e+001	-1.484483e+002
2849629073	-1.164898e+001	-1.493344e+002
2857147619	-1.160650e+001	-1.503537e+002
2864666165	-1.151743e+001	-1.512815e+002
2872184712	-1.144281e+001	-1.520625e+002
2879703258	-1.136316e+001	-1.528911e+002
2887221805	-1.129945e+001	-1.538735e+002
2894740351	-1.127755e+001	-1.546388e+002
2902258897	-1.123202e+001	-1.555780e+002
2909777444	-1.118366e+001	-1.564294e+002
2917295990	-1.115855e+001	-1.572891e+002
2924814536	-1.111190e+001	-1.582664e+002
2932333083	-1.102968e+001	-1.593320e+002
2939851629	-1.097877e+001	-1.601203e+002
2947370175	-1.089027e+001	-1.612144e+002
2954888722	-1.083631e+001	-1.620237e+002
2962407268	-1.074366e+001	-1.628092e+002
2969925815	-1.068453e+001	-1.636357e+002
2977444361	-1.064455e+001	-1.644739e+002
2984962907	-1.057545e+001	-1.650668e+002
2992481454	-1.052202e+001	-1.661598e+002
3000000000	-1.046316e+001	-1.670541e+002
