!Agilent Technologies,E5071C,MY46107260,A.09.30
!Date: Mon Jan 01 00:20:07 2001
!Data & Calibration Information:
!Freq	S11:SOLT2(ON)	S21:SOLT2(ON)	S12:SOLT2(ON)	S22:SOLT2(ON)
# Hz S dB R 50
300000	-6.417750e+001	1.175392e+001	-8.357765e-004	-5.054950e-002	-4.256917e-003	-4.956666e-002	-6.290650e+001	1.146152e+001
7799250	-4.658836e+001	7.979584e+001	-3.494921e-003	-1.065644e+000	-7.050844e-003	-1.075752e+000	-4.672172e+001	7.791501e+001
15298500	-4.105476e+001	8.239891e+001	-6.578333e-003	-2.075332e+000	-1.135225e-002	-2.080894e+000	-4.123040e+001	8.283201e+001
22797750	-3.787481e+001	8.241110e+001	-1.136228e-002	-3.080654e+000	-1.516396e-002	-3.083659e+000	-3.789251e+001	8.320212e+001
30297000	-3.570132e+001	8.168932e+001	-1.525263e-002	-4.067810e+000	-1.890052e-002	-4.072902e+000	-3.568699e+001	8.244330e+001
37796250	-3.403878e+001	8.095519e+001	-1.821567e-002	-5.055864e+000	-2.190599e-002	-5.058135e+000	-3.402746e+001	8.168697e+001
45295500	-3.265441e+001	8.024505e+001	-2.102632e-002	-6.044376e+000	-2.465182e-002	-6.047027e+000	-3.262111e+001	8.093547e+001
52794750	-3.142226e+001	7.938145e+001	-2.391107e-002	-7.031255e+000	-2.721725e-002	-7.033795e+000	-3.138124e+001	8.017839e+001
60294000	-3.027707e+001	7.847642e+001	-2.682174e-002	-8.016385e+000	-3.031413e-002	-8.019547e+000	-3.022066e+001	7.936961e+001
67793250	-2.921642e+001	7.747106e+001	-2.987502e-002	-8.998860e+000	-3.381386e-002	-9.004301e+000	-2.914347e+001	7.850167e+001
75292500	-2.827268e+001	7.640792e+001	-3.289478e-002	-9.982580e+000	-3.759762e-002	-9.984630e+000	-2.817572e+001	7.769083e+001
82791750	-2.741724e+001	7.534738e+001	-3.655905e-002	-1.096176e+001	-4.131899e-002	-1.096681e+001	-2.731667e+001	7.684167e+001
90291000	-2.669322e+001	7.436765e+001	-4.021815e-002	-1.194113e+001	-4.520728e-002	-1.194637e+001	-2.659208e+001	7.593852e+001
97790250	-2.607086e+001	7.339257e+001	-4.367361e-002	-1.291841e+001	-4.911790e-002	-1.292534e+001	-2.599576e+001	7.495320e+001
105289500	-2.554837e+001	7.240761e+001	-4.739531e-002	-1.389729e+001	-5.294500e-002	-1.390423e+001	-2.549396e+001	7.369114e+001
112788750	-2.508949e+001	7.156109e+001	-5.096135e-002	-1.487659e+001	-5.637121e-002	-1.487650e+001	-2.506926e+001	7.221273e+001
120288000	-2.465412e+001	7.086111e+001	-5.418952e-002	-1.585608e+001	-5.931577e-002	-1.585096e+001	-2.468192e+001	7.053511e+001
127787250	-2.421376e+001	7.026321e+001	-5.744064e-002	-1.683123e+001	-6.240821e-002	-1.682749e+001	-2.428052e+001	6.870820e+001
135286500	-2.372943e+001	6.968587e+001	-6.108159e-002	-1.781327e+001	-6.548558e-002	-1.780405e+001	-2.383659e+001	6.686419e+001
142785750	-2.321548e+001	6.908345e+001	-6.499518e-002	-1.879612e+001	-6.873433e-002	-1.877893e+001	-2.333303e+001	6.508454e+001
150285000	-2.266830e+001	6.836221e+001	-6.966487e-002	-1.977045e+001	-7.267834e-002	-1.975782e+001	-2.278884e+001	6.352741e+001
157784250	-2.213880e+001	6.748573e+001	-7.463502e-002	-2.074969e+001	-7.780450e-002	-2.073745e+001	-2.223081e+001	6.226819e+001
165283500	-2.164582e+001	6.647180e+001	-8.012446e-002	-2.172223e+001	-8.355872e-002	-2.171101e+001	-2.170158e+001	6.129753e+001
172782750	-2.121514e+001	6.529100e+001	-8.576853e-002	-2.269121e+001	-8.981828e-002	-2.268369e+001	-2.123283e+001	6.061555e+001
180282000	-2.085746e+001	6.395557e+001	-9.084862e-002	-2.365618e+001	-9.567849e-002	-2.365268e+001	-2.082869e+001	6.020998e+001
187781250	-2.057780e+001	6.254022e+001	-9.528553e-002	-2.461488e+001	-1.010292e-001	-2.461622e+001	-2.050490e+001	5.993909e+001
195280500	-2.035311e+001	6.108789e+001	-9.859014e-002	-2.557297e+001	-1.047760e-001	-2.558339e+001	-2.024167e+001	5.971849e+001
202779750	-2.015421e+001	5.963711e+001	-1.011602e-001	-2.654181e+001	-1.077711e-001	-2.654897e+001	-2.002744e+001	5.939422e+001
210279000	-1.996359e+001	5.825511e+001	-1.034817e-001	-2.750483e+001	-1.100285e-001	-2.752348e+001	-1.983733e+001	5.894048e+001
217778250	-1.975469e+001	5.702519e+001	-1.062449e-001	-2.848260e+001	-1.129678e-001	-2.849011e+001	-1.963968e+001	5.823419e+001
225277500	-1.951627e+001	5.590361e+001	-1.097653e-001	-2.945672e+001	-1.169900e-001	-2.946408e+001	-1.942720e+001	5.721749e+001
232776750	-1.924846e+001	5.495137e+001	-1.144812e-001	-3.043495e+001	-1.215056e-001	-3.042388e+001	-1.919932e+001	5.593819e+001
240276000	-1.895983e+001	5.413223e+001	-1.204124e-001	-3.140585e+001	-1.273086e-001	-3.138283e+001	-1.895530e+001	5.449680e+001
247775250	-1.867927e+001	5.332768e+001	-1.276029e-001	-3.237541e+001	-1.342613e-001	-3.233539e+001	-1.870436e+001	5.296349e+001
255274500	-1.842470e+001	5.251090e+001	-1.350666e-001	-3.332852e+001	-1.414907e-001	-3.328415e+001	-1.846388e+001	5.141909e+001
262773750	-1.820848e+001	5.162260e+001	-1.414207e-001	-3.427543e+001	-1.480772e-001	-3.422870e+001	-1.823696e+001	4.995777e+001
270273000	-1.803275e+001	5.065853e+001	-1.462177e-001	-3.521412e+001	-1.536044e-001	-3.517583e+001	-1.803089e+001	4.862688e+001
277772250	-1.789047e+001	4.958144e+001	-1.486849e-001	-3.615852e+001	-1.575780e-001	-3.612561e+001	-1.784621e+001	4.748331e+001
285271500	-1.777342e+001	4.839541e+001	-1.493313e-001	-3.711075e+001	-1.599312e-001	-3.709217e+001	-1.767225e+001	4.648305e+001
292770750	-1.765765e+001	4.717057e+001	-1.500406e-001	-3.808133e+001	-1.618782e-001	-3.807130e+001	-1.749526e+001	4.564223e+001
300270000	-1.753526e+001	4.590760e+001	-1.515838e-001	-3.905855e+001	-1.647780e-001	-3.905814e+001	-1.731343e+001	4.488609e+001
307769250	-1.739590e+001	4.470764e+001	-1.547322e-001	-4.004396e+001	-1.694925e-001	-4.004901e+001	-1.712774e+001	4.415924e+001
315268500	-1.723523e+001	4.363028e+001	-1.600650e-001	-4.102740e+001	-1.759784e-001	-4.103169e+001	-1.694419e+001	4.345524e+001
322767750	-1.705957e+001	4.270382e+001	-1.677857e-001	-4.200067e+001	-1.841336e-001	-4.199117e+001	-1.675585e+001	4.275542e+001
330267000	-1.689098e+001	4.187030e+001	-1.773245e-001	-4.296455e+001	-1.915222e-001	-4.293673e+001	-1.659648e+001	4.194972e+001
337766250	-1.673417e+001	4.109537e+001	-1.862971e-001	-4.390884e+001	-1.976738e-001	-4.386515e+001	-1.647026e+001	4.105021e+001
345265500	-1.660284e+001	4.037251e+001	-1.932764e-001	-4.483050e+001	-2.017664e-001	-4.479020e+001	-1.639674e+001	4.012339e+001
352764750	-1.649974e+001	3.963337e+001	-1.966022e-001	-4.575003e+001	-2.030586e-001	-4.572161e+001	-1.635983e+001	3.912567e+001
360264000	-1.641824e+001	3.879573e+001	-1.968234e-001	-4.669106e+001	-2.030753e-001	-4.666711e+001	-1.634920e+001	3.805289e+001
367763250	-1.635129e+001	3.785537e+001	-1.958387e-001	-4.765144e+001	-2.019834e-001	-4.762795e+001	-1.635479e+001	3.691519e+001
375262500	-1.628444e+001	3.677689e+001	-1.962472e-001	-4.863195e+001	-2.011287e-001	-4.860396e+001	-1.635071e+001	3.572081e+001
382761750	-1.620429e+001	3.560302e+001	-1.994218e-001	-4.961739e+001	-2.013933e-001	-4.959356e+001	-1.631607e+001	3.448393e+001
390261000	-1.609896e+001	3.440089e+001	-2.050898e-001	-5.060536e+001	-2.046658e-001	-5.057842e+001	-1.623206e+001	3.320893e+001
397760250	-1.596399e+001	3.319132e+001	-2.130754e-001	-5.157355e+001	-2.114844e-001	-5.155481e+001	-1.609359e+001	3.189224e+001
405259500	-1.582071e+001	3.198880e+001	-2.219128e-001	-5.252934e+001	-2.205617e-001	-5.250252e+001	-1.592464e+001	3.053658e+001
412758750	-1.567783e+001	3.078114e+001	-2.305641e-001	-5.346632e+001	-2.302361e-001	-5.343220e+001	-1.574581e+001	2.914277e+001
420258000	-1.555835e+001	2.966180e+001	-2.375261e-001	-5.438637e+001	-2.383815e-001	-5.433799e+001	-1.558232e+001	2.780649e+001
427757250	-1.547587e+001	2.856532e+001	-2.418185e-001	-5.530040e+001	-2.436746e-001	-5.524255e+001	-1.544828e+001	2.649919e+001
435256500	-1.542747e+001	2.750727e+001	-2.431845e-001	-5.622045e+001	-2.467540e-001	-5.616791e+001	-1.534977e+001	2.529309e+001
442755750	-1.541800e+001	2.647539e+001	-2.425446e-001	-5.715711e+001	-2.480917e-001	-5.710741e+001	-1.530228e+001	2.421391e+001
450255000	-1.542372e+001	2.547369e+001	-2.419640e-001	-5.811501e+001	-2.493310e-001	-5.807753e+001	-1.527814e+001	2.336810e+001
457754250	-1.543559e+001	2.451116e+001	-2.423051e-001	-5.908761e+001	-2.507553e-001	-5.905811e+001	-1.527037e+001	2.264962e+001
465253500	-1.542766e+001	2.351063e+001	-2.445787e-001	-6.005956e+001	-2.532689e-001	-6.004366e+001	-1.526233e+001	2.204397e+001
472752750	-1.539377e+001	2.254727e+001	-2.478055e-001	-6.103238e+001	-2.564294e-001	-6.102728e+001	-1.523707e+001	2.150933e+001
480252000	-1.532913e+001	2.163852e+001	-2.518663e-001	-6.200194e+001	-2.596431e-001	-6.200159e+001	-1.519457e+001	2.092928e+001
487751250	-1.524378e+001	2.074518e+001	-2.566895e-001	-6.296126e+001	-2.633279e-001	-6.295437e+001	-1.514408e+001	2.023310e+001
495250500	-1.515202e+001	1.984664e+001	-2.617221e-001	-6.391450e+001	-2.668741e-001	-6.389066e+001	-1.510020e+001	1.935808e+001
502749750	-1.507246e+001	1.897564e+001	-2.661382e-001	-6.485743e+001	-2.694246e-001	-6.481052e+001	-1.507279e+001	1.834061e+001
510249000	-1.502074e+001	1.811389e+001	-2.695753e-001	-6.579279e+001	-2.713158e-001	-6.573124e+001	-1.507035e+001	1.715148e+001
517748250	-1.500331e+001	1.725758e+001	-2.715010e-001	-6.673155e+001	-2.720350e-001	-6.665298e+001	-1.509802e+001	1.587123e+001
525247500	-1.501781e+001	1.635508e+001	-2.727628e-001	-6.767348e+001	-2.718776e-001	-6.758899e+001	-1.515563e+001	1.453442e+001
532746750	-1.506318e+001	1.541899e+001	-2.730473e-001	-6.862135e+001	-2.706611e-001	-6.853966e+001	-1.522710e+001	1.318837e+001
540246000	-1.511409e+001	1.441014e+001	-2.730624e-001	-6.957602e+001	-2.691894e-001	-6.951288e+001	-1.529735e+001	1.186928e+001
547745250	-1.515712e+001	1.332488e+001	-2.734994e-001	-7.053752e+001	-2.682910e-001	-7.050297e+001	-1.534135e+001	1.060666e+001
555244500	-1.518266e+001	1.217186e+001	-2.744535e-001	-7.150316e+001	-2.685563e-001	-7.150062e+001	-1.535111e+001	9.391380e+000
562743750	-1.518120e+001	1.098868e+001	-2.763204e-001	-7.247194e+001	-2.704247e-001	-7.249635e+001	-1.532414e+001	8.232356e+000
570243000	-1.516216e+001	9.806112e+000	-2.784214e-001	-7.343758e+001	-2.742063e-001	-7.347647e+001	-1.526847e+001	7.081330e+000
577742250	-1.513513e+001	8.651325e+000	-2.813232e-001	-7.439556e+001	-2.789217e-001	-7.443072e+001	-1.520168e+001	5.921552e+000
585241500	-1.511911e+001	7.575501e+000	-2.839197e-001	-7.534818e+001	-2.831924e-001	-7.536096e+001	-1.514395e+001	4.727084e+000
592740750	-1.512802e+001	6.561814e+000	-2.856869e-001	-7.629402e+001	-2.859444e-001	-7.627943e+001	-1.511494e+001	3.526814e+000
600240000	-1.517082e+001	5.619672e+000	-2.861028e-001	-7.723901e+001	-2.872143e-001	-7.719035e+001	-1.512052e+001	2.325459e+000
607739250	-1.524776e+001	4.736648e+000	-2.854641e-001	-7.818625e+001	-2.871633e-001	-7.811527e+001	-1.516746e+001	1.178429e+000
615238500	-1.535147e+001	3.855829e+000	-2.837305e-001	-7.913970e+001	-2.859294e-001	-7.905636e+001	-1.524547e+001	1.067071e-001
622737750	-1.546961e+001	2.986685e+000	-2.815505e-001	-8.009983e+001	-2.844585e-001	-8.002420e+001	-1.534070e+001	-8.398758e-001
630237000	-1.557567e+001	2.071569e+000	-2.788356e-001	-8.107221e+001	-2.828415e-001	-8.101160e+001	-1.543192e+001	-1.633635e+000
637736250	-1.565435e+001	1.149056e+000	-2.771985e-001	-8.206047e+001	-2.819718e-001	-8.201840e+001	-1.550380e+001	-2.324301e+000
645235500	-1.570260e+001	1.874226e-001	-2.763426e-001	-8.305048e+001	-2.816730e-001	-8.302663e+001	-1.555046e+001	-2.923821e+000
652734750	-1.572033e+001	-8.069796e-001	-2.767979e-001	-8.404351e+001	-2.824209e-001	-8.403077e+001	-1.557691e+001	-3.528563e+000
660234000	-1.572047e+001	-1.772276e+000	-2.784274e-001	-8.502925e+001	-2.833065e-001	-8.503083e+001	-1.559718e+001	-4.218108e+000
667733250	-1.572869e+001	-2.740160e+000	-2.807573e-001	-8.601130e+001	-2.835758e-001	-8.600695e+001	-1.563049e+001	-5.014580e+000
675232500	-1.576532e+001	-3.679553e+000	-2.828967e-001	-8.698300e+001	-2.829408e-001	-8.697196e+001	-1.570002e+001	-5.915453e+000
682731750	-1.584412e+001	-4.569247e+000	-2.845406e-001	-8.794274e+001	-2.808685e-001	-8.792243e+001	-1.581854e+001	-6.916890e+000
690231000	-1.597058e+001	-5.429460e+000	-2.846547e-001	-8.890124e+001	-2.776234e-001	-8.887533e+001	-1.599671e+001	-7.989168e+000
697730250	-1.613993e+001	-6.286323e+000	-2.823841e-001	-8.986216e+001	-2.733340e-001	-8.983615e+001	-1.622471e+001	-9.098510e+000
705229500	-1.632861e+001	-7.171752e+000	-2.782350e-001	-9.082757e+001	-2.688330e-001	-9.081739e+001	-1.648133e+001	-1.020090e+001
712728750	-1.651880e+001	-8.112737e+000	-2.730770e-001	-9.181261e+001	-2.646304e-001	-9.182139e+001	-1.674005e+001	-1.129719e+001
720228000	-1.668274e+001	-9.102294e+000	-2.678355e-001	-9.281479e+001	-2.610208e-001	-9.284364e+001	-1.697156e+001	-1.241379e+001
727727250	-1.680791e+001	-1.010220e+001	-2.640967e-001	-9.383504e+001	-2.585736e-001	-9.387701e+001	-1.715712e+001	-1.353505e+001
735226500	-1.689599e+001	-1.112810e+001	-2.629413e-001	-9.486331e+001	-2.576409e-001	-9.491537e+001	-1.728478e+001	-1.473121e+001
742725750	-1.696320e+001	-1.212598e+001	-2.648002e-001	-9.588899e+001	-2.587011e-001	-9.594965e+001	-1.737013e+001	-1.601877e+001
750225000	-1.703614e+001	-1.309324e+001	-2.683854e-001	-9.690641e+001	-2.614917e-001	-9.696510e+001	-1.743765e+001	-1.745674e+001
757724250	-1.713969e+001	-1.398090e+001	-2.729022e-001	-9.790556e+001	-2.640176e-001	-9.794724e+001	-1.751469e+001	-1.895945e+001
765223500	-1.730898e+001	-1.477826e+001	-2.761381e-001	-9.888836e+001	-2.650078e-001	-9.890577e+001	-1.763373e+001	-2.047361e+001
772722750	-1.755292e+001	-1.548771e+001	-2.770611e-001	-9.985496e+001	-2.638457e-001	-9.985414e+001	-1.780944e+001	-2.194004e+001
780222000	-1.787225e+001	-1.612831e+001	-2.740259e-001	-1.008216e+002	-2.600961e-001	-1.008106e+002	-1.804544e+001	-2.325562e+001
787721250	-1.823525e+001	-1.671553e+001	-2.674308e-001	-1.017987e+002	-2.553974e-001	-1.017913e+002	-1.833002e+001	-2.430197e+001
795220500	-1.861549e+001	-1.734373e+001	-2.592899e-001	-1.028030e+002	-2.509468e-001	-1.027983e+002	-1.863691e+001	-2.512805e+001
802719750	-1.896962e+001	-1.802835e+001	-2.513631e-001	-1.038308e+002	-2.475366e-001	-1.038301e+002	-1.893755e+001	-2.565186e+001
810219000	-1.927296e+001	-1.873936e+001	-2.456072e-001	-1.048827e+002	-2.451057e-001	-1.048804e+002	-1.921168e+001	-2.591681e+001
817718250	-1.951313e+001	-1.946465e+001	-2.428095e-001	-1.059453e+002	-2.439158e-001	-1.059415e+002	-1.945026e+001	-2.608374e+001
825217500	-1.970288e+001	-2.019378e+001	-2.429226e-001	-1.070050e+002	-2.441435e-001	-1.070057e+002	-1.967102e+001	-2.626556e+001
832716750	-1.987788e+001	-2.082961e+001	-2.443543e-001	-1.080562e+002	-2.449207e-001	-1.080639e+002	-1.989515e+001	-2.656846e+001
840216000	-2.008162e+001	-2.131560e+001	-2.460515e-001	-1.090937e+002	-2.453027e-001	-1.091084e+002	-2.017011e+001	-2.709793e+001
847715250	-2.036266e+001	-2.163543e+001	-2.470556e-001	-1.101229e+002	-2.445284e-001	-1.101385e+002	-2.053696e+001	-2.782341e+001
855214500	-2.075942e+001	-2.173618e+001	-2.467566e-001	-1.111469e+002	-2.424848e-001	-1.111698e+002	-2.102361e+001	-2.865553e+001
862713750	-2.128367e+001	-2.161251e+001	-2.447713e-001	-1.121776e+002	-2.394159e-001	-1.122051e+002	-2.164797e+001	-2.946913e+001
870213000	-2.192287e+001	-2.130883e+001	-2.414761e-001	-1.132229e+002	-2.369510e-001	-1.132507e+002	-2.240750e+001	-3.018166e+001
877712250	-2.262981e+001	-2.082952e+001	-2.383274e-001	-1.142817e+002	-2.359416e-001	-1.143043e+002	-2.327098e+001	-3.070712e+001
885211500	-2.334052e+001	-2.029487e+001	-2.359390e-001	-1.153523e+002	-2.356515e-001	-1.153639e+002	-2.415510e+001	-3.093724e+001
892710750	-2.399773e+001	-1.971173e+001	-2.349926e-001	-1.164314e+002	-2.357708e-001	-1.164293e+002	-2.499844e+001	-3.086915e+001
900210000	-2.456294e+001	-1.908426e+001	-2.356831e-001	-1.175092e+002	-2.356965e-001	-1.175027e+002	-2.573198e+001	-3.059386e+001
907709250	-2.502898e+001	-1.830651e+001	-2.367517e-001	-1.185874e+002	-2.356280e-001	-1.185888e+002	-2.636999e+001	-3.017882e+001
915208500	-2.546056e+001	-1.719895e+001	-2.378232e-001	-1.196581e+002	-2.359564e-001	-1.196743e+002	-2.694751e+001	-2.987833e+001
922707750	-2.594506e+001	-1.534386e+001	-2.382106e-001	-1.207313e+002	-2.365040e-001	-1.207685e+002	-2.760862e+001	-2.962923e+001
930207000	-2.659748e+001	-1.222853e+001	-2.383795e-001	-1.218142e+002	-2.373784e-001	-1.218590e+002	-2.850543e+001	-2.927609e+001
937706250	-2.747655e+001	-7.314693e+000	-2.390879e-001	-1.229043e+002	-2.380732e-001	-1.229517e+002	-2.980941e+001	-2.822063e+001
945205500	-2.858435e+001	3.917891e-001	-2.404475e-001	-1.240019e+002	-2.394688e-001	-1.240454e+002	-3.169138e+001	-2.545400e+001
952704750	-2.973892e+001	1.193435e+001	-2.425763e-001	-1.251056e+002	-2.424258e-001	-1.251467e+002	-3.433519e+001	-1.852492e+001
960204000	-3.059043e+001	2.694037e+001	-2.460648e-001	-1.262138e+002	-2.475703e-001	-1.262530e+002	-3.759161e+001	-9.934984e-001
967703250	-3.078658e+001	4.281402e+001	-2.510717e-001	-1.273147e+002	-2.539135e-001	-1.273550e+002	-3.937526e+001	3.358899e+001
975202500	-3.035708e+001	5.577655e+001	-2.562769e-001	-1.284171e+002	-2.601896e-001	-1.284577e+002	-3.737110e+001	6.362088e+001
982701750	-2.971103e+001	6.429951e+001	-2.612285e-001	-1.295162e+002	-2.644973e-001	-1.295502e+002	-3.473307e+001	7.626270e+001
990201000	-2.905015e+001	6.916967e+001	-2.651208e-001	-1.306134e+002	-2.661539e-001	-1.306458e+002	-3.266567e+001	8.066414e+001
997700250	-2.839369e+001	7.178914e+001	-2.670077e-001	-1.317205e+002	-2.657812e-001	-1.317570e+002	-3.106169e+001	8.220607e+001
1005199500	-2.766176e+001	7.351934e+001	-2.674787e-001	-1.328455e+002	-2.650086e-001	-1.328869e+002	-2.965901e+001	8.345097e+001
1012698750	-2.678576e+001	7.542576e+001	-2.680137e-001	-1.339927e+002	-2.658328e-001	-1.340387e+002	-2.830725e+001	8.520853e+001
1020198000	-2.574667e+001	7.792342e+001	-2.708891e-001	-1.351641e+002	-2.697582e-001	-1.352094e+002	-2.691247e+001	8.779984e+001
1027697250	-2.459469e+001	8.092523e+001	-2.777709e-001	-1.363515e+002	-2.784587e-001	-1.363905e+002	-2.548174e+001	9.067909e+001
1035196500	-2.338742e+001	8.401287e+001	-2.889415e-001	-1.375297e+002	-2.923763e-001	-1.375669e+002	-2.408123e+001	9.334243e+001
1042695750	-2.224468e+001	8.675025e+001	-3.036748e-001	-1.386912e+002	-3.106081e-001	-1.387311e+002	-2.278646e+001	9.542600e+001
1050195000	-2.124001e+001	8.886790e+001	-3.201079e-001	-1.398273e+002	-3.301976e-001	-1.398661e+002	-2.166504e+001	9.666961e+001
1057694250	-2.041880e+001	9.024449e+001	-3.352705e-001	-1.409414e+002	-3.468750e-001	-1.409841e+002	-2.074013e+001	9.705726e+001
1065193500	-1.978211e+001	9.093078e+001	-3.469124e-001	-1.420421e+002	-3.574659e-001	-1.420872e+002	-2.002021e+001	9.678587e+001
1072692750	-1.930082e+001	9.094626e+001	-3.533148e-001	-1.431487e+002	-3.608673e-001	-1.431952e+002	-1.946699e+001	9.595727e+001
1080192000	-1.891103e+001	9.039804e+001	-3.558642e-001	-1.442878e+002	-3.599562e-001	-1.443361e+002	-1.901072e+001	9.476260e+001
1087691250	-1.853415e+001	8.944407e+001	-3.577461e-001	-1.454759e+002	-3.599881e-001	-1.455216e+002	-1.858659e+001	9.342902e+001
1095190500	-1.810694e+001	8.831895e+001	-3.636803e-001	-1.467090e+002	-3.648943e-001	-1.467435e+002	-1.813047e+001	9.221556e+001
1102689750	-1.758999e+001	8.726124e+001	-3.766181e-001	-1.479707e+002	-3.778835e-001	-1.479864e+002	-1.760876e+001	9.122574e+001
1110189000	-1.698033e+001	8.641588e+001	-3.984836e-001	-1.492315e+002	-3.998990e-001	-1.492235e+002	-1.701241e+001	9.053296e+001
1117688250	-1.631293e+001	8.585876e+001	-4.272409e-001	-1.504677e+002	-4.297314e-001	-1.504433e+002	-1.636495e+001	9.006738e+001
1125187500	-1.564063e+001	8.549532e+001	-4.597709e-001	-1.516558e+002	-4.635699e-001	-1.516358e+002	-1.571693e+001	8.966428e+001
1132686750	-1.502517e+001	8.522578e+001	-4.922323e-001	-1.527894e+002	-4.970987e-001	-1.528036e+002	-1.512000e+001	8.919354e+001
1140186000	-1.450559e+001	8.490413e+001	-5.197967e-001	-1.538841e+002	-5.265085e-001	-1.539623e+002	-1.460966e+001	8.854651e+001
1147685250	-1.409592e+001	8.442709e+001	-5.399478e-001	-1.549670e+002	-5.489024e-001	-1.551278e+002	-1.420201e+001	8.762844e+001
