!Agilent Technologies,E5071C,MY46107260,A.09.30
!Date: Mon Jan 01 00:40:03 2001
!Data & Calibration Information:
!Freq	S11:SOLT2(ON)	S21:SOLT2(ON)	S12:SOLT2(ON)	S22:SOLT2(ON)
# Hz S dB R 50
100000	-3.653793e+001	-2.673801e-001	-8.573785e+001	-1.014958e+002	-8.583930e+001	-1.534626e+002	-3.728507e+001	-1.793630e+002
7599750	-3.647862e+001	-6.080591e+000	-7.870725e+001	-8.003340e+001	-7.934493e+001	-1.006903e+002	-3.766437e+001	1.786639e+002
15099500	-3.637498e+001	-1.240836e+001	-7.052039e+001	-9.332779e+001	-7.071838e+001	-9.215600e+001	-3.710234e+001	1.793973e+002
22599250	-3.624801e+001	-1.893362e+001	-6.715666e+001	-9.285311e+001	-6.713953e+001	-9.234722e+001	-3.664283e+001	1.792877e+002
30099000	-3.608319e+001	-2.522254e+001	-6.458208e+001	-9.255309e+001	-6.468290e+001	-9.259005e+001	-3.630222e+001	-1.772120e+002
37598750	-3.585091e+001	-3.115224e+001	-6.270365e+001	-9.457394e+001	-6.265748e+001	-9.432962e+001	-3.602219e+001	-1.735435e+002
45098500	-3.558010e+001	-3.681386e+001	-6.112790e+001	-9.508117e+001	-6.109339e+001	-9.526030e+001	-3.611021e+001	-1.700685e+002
52598250	-3.527276e+001	-4.201681e+001	-5.982661e+001	-9.651650e+001	-5.981229e+001	-9.625979e+001	-3.619337e+001	-1.675019e+002
60098000	-3.492571e+001	-4.692884e+001	-5.865213e+001	-9.589400e+001	-5.869950e+001	-9.529176e+001	-3.657675e+001	-1.666373e+002
67597750	-3.456312e+001	-5.160957e+001	-5.762719e+001	-9.633525e+001	-5.762528e+001	-9.638503e+001	-3.687211e+001	-1.663345e+002
75097500	-3.416222e+001	-5.604977e+001	-5.668675e+001	-9.680380e+001	-5.671046e+001	-9.666531e+001	-3.703139e+001	-1.675813e+002
82597250	-3.376585e+001	-6.019533e+001	-5.587510e+001	-9.732060e+001	-5.589013e+001	-9.768563e+001	-3.692647e+001	-1.705979e+002
90097000	-3.335711e+001	-6.409289e+001	-5.515789e+001	-9.827399e+001	-5.507508e+001	-9.834838e+001	-3.644248e+001	-1.742468e+002
97596750	-3.292673e+001	-6.771605e+001	-5.437394e+001	-9.881214e+001	-5.439502e+001	-9.894144e+001	-3.576706e+001	-1.738868e+002
105096500	-3.248782e+001	-7.092782e+001	-5.371997e+001	-9.989647e+001	-5.372738e+001	-1.000524e+002	-3.500925e+001	-1.731251e+002
112596250	-3.205485e+001	-7.389370e+001	-5.316438e+001	-1.006252e+002	-5.314799e+001	-1.007694e+002	-3.448395e+001	-1.705642e+002
120096000	-3.165600e+001	-7.640314e+001	-5.261446e+001	-1.017978e+002	-5.265125e+001	-1.020367e+002	-3.408868e+001	-1.667198e+002
127595750	-3.126525e+001	-7.854879e+001	-5.216751e+001	-1.017253e+002	-5.213301e+001	-1.016409e+002	-3.391222e+001	-1.636844e+002
135095500	-3.093452e+001	-8.059465e+001	-5.161222e+001	-1.022542e+002	-5.158620e+001	-1.022484e+002	-3.385561e+001	-1.600969e+002
142595250	-3.064793e+001	-8.278636e+001	-5.108370e+001	-1.028650e+002	-5.108715e+001	-1.028463e+002	-3.401314e+001	-1.586136e+002
150095000	-3.040475e+001	-8.493993e+001	-5.062425e+001	-1.034840e+002	-5.063514e+001	-1.036001e+002	-3.415073e+001	-1.572780e+002
157594750	-3.017985e+001	-8.727375e+001	-5.019391e+001	-1.043708e+002	-5.017723e+001	-1.043297e+002	-3.427002e+001	-1.572542e+002
165094500	-2.995256e+001	-8.985344e+001	-4.975899e+001	-1.051978e+002	-4.976597e+001	-1.050971e+002	-3.413070e+001	-1.582182e+002
172594250	-2.970792e+001	-9.253593e+001	-4.937714e+001	-1.056916e+002	-4.937071e+001	-1.056894e+002	-3.380975e+001	-1.593302e+002
180094000	-2.942727e+001	-9.531282e+001	-4.899722e+001	-1.066774e+002	-4.899018e+001	-1.064967e+002	-3.342191e+001	-1.582678e+002
187593750	-2.911302e+001	-9.793965e+001	-4.863638e+001	-1.071614e+002	-4.861920e+001	-1.071127e+002	-3.306351e+001	-1.582517e+002
195093500	-2.876456e+001	-1.003646e+002	-4.829085e+001	-1.078197e+002	-4.828117e+001	-1.077914e+002	-3.272180e+001	-1.563180e+002
202593250	-2.840932e+001	-1.024656e+002	-4.793650e+001	-1.086207e+002	-4.794370e+001	-1.085515e+002	-3.248181e+001	-1.534036e+002
210093000	-2.805558e+001	-1.042493e+002	-4.762983e+001	-1.090359e+002	-4.762488e+001	-1.091052e+002	-3.250498e+001	-1.509202e+002
217592750	-2.774303e+001	-1.058057e+002	-4.731772e+001	-1.096611e+002	-4.730010e+001	-1.096417e+002	-3.270742e+001	-1.484118e+002
225092500	-2.746002e+001	-1.070454e+002	-4.699666e+001	-1.102655e+002	-4.698548e+001	-1.103565e+002	-3.294941e+001	-1.477551e+002
232592250	-2.720672e+001	-1.082721e+002	-4.667015e+001	-1.108964e+002	-4.667505e+001	-1.110510e+002	-3.334089e+001	-1.491748e+002
240092000	-2.699709e+001	-1.094678e+002	-4.636450e+001	-1.117108e+002	-4.639044e+001	-1.116405e+002	-3.353905e+001	-1.523680e+002
247591750	-2.681711e+001	-1.109029e+002	-4.609207e+001	-1.122728e+002	-4.608121e+001	-1.123875e+002	-3.329589e+001	-1.552204e+002
255091500	-2.666768e+001	-1.123661e+002	-4.580249e+001	-1.130626e+002	-4.579764e+001	-1.130166e+002	-3.299559e+001	-1.582329e+002
262591250	-2.651920e+001	-1.139873e+002	-4.553214e+001	-1.137560e+002	-4.552131e+001	-1.138518e+002	-3.251280e+001	-1.600816e+002
270091000	-2.636776e+001	-1.157567e+002	-4.525931e+001	-1.143903e+002	-4.525779e+001	-1.145772e+002	-3.207158e+001	-1.599432e+002
277590750	-2.620720e+001	-1.176448e+002	-4.499579e+001	-1.150740e+002	-4.500196e+001	-1.152668e+002	-3.173428e+001	-1.595935e+002
285090500	-2.603386e+001	-1.195166e+002	-4.472122e+001	-1.157958e+002	-4.475996e+001	-1.160238e+002	-3.114080e+001	-1.589345e+002
292590250	-2.585184e+001	-1.213919e+002	-4.447738e+001	-1.167696e+002	-4.452283e+001	-1.167354e+002	-3.100463e+001	-1.579560e+002
300090000	-2.566120e+001	-1.231891e+002	-4.425622e+001	-1.174902e+002	-4.429222e+001	-1.173499e+002	-3.098995e+001	-1.565561e+002
307589750	-2.546838e+001	-1.248481e+002	-4.405564e+001	-1.182171e+002	-4.407875e+001	-1.180926e+002	-3.112117e+001	-1.571795e+002
315089500	-2.526546e+001	-1.264900e+002	-4.385211e+001	-1.187125e+002	-4.385267e+001	-1.186173e+002	-3.092522e+001	-1.581122e+002
322589250	-2.506891e+001	-1.280288e+002	-4.362289e+001	-1.193043e+002	-4.362378e+001	-1.192341e+002	-3.089485e+001	-1.610297e+002
330089000	-2.487321e+001	-1.294922e+002	-4.338831e+001	-1.199137e+002	-4.339668e+001	-1.198601e+002	-3.061064e+001	-1.624352e+002
337588750	-2.468787e+001	-1.308493e+002	-4.315556e+001	-1.205766e+002	-4.316332e+001	-1.204404e+002	-3.032760e+001	-1.635962e+002
345088500	-2.450952e+001	-1.321823e+002	-4.294095e+001	-1.212725e+002	-4.294451e+001	-1.212729e+002	-2.976051e+001	-1.638611e+002
352588250	-2.433706e+001	-1.334572e+002	-4.271069e+001	-1.219564e+002	-4.271206e+001	-1.219919e+002	-2.924337e+001	-1.628052e+002
360088000	-2.418918e+001	-1.346744e+002	-4.248843e+001	-1.226704e+002	-4.250857e+001	-1.226774e+002	-2.901096e+001	-1.615527e+002
367587750	-2.405945e+001	-1.358844e+002	-4.225517e+001	-1.235193e+002	-4.227315e+001	-1.234922e+002	-2.885632e+001	-1.604258e+002
375087500	-2.394613e+001	-1.371244e+002	-4.204622e+001	-1.244080e+002	-4.206022e+001	-1.244617e+002	-2.885871e+001	-1.591169e+002
382587250	-2.384377e+001	-1.383844e+002	-4.186685e+001	-1.252846e+002	-4.187959e+001	-1.253128e+002	-2.898796e+001	-1.587904e+002
390087000	-2.375248e+001	-1.397416e+002	-4.167115e+001	-1.260670e+002	-4.170186e+001	-1.260853e+002	-2.910404e+001	-1.600182e+002
397586750	-2.365739e+001	-1.411886e+002	-4.150681e+001	-1.268058e+002	-4.151483e+001	-1.268109e+002	-2.920642e+001	-1.620678e+002
405086500	-2.356602e+001	-1.427340e+002	-4.131350e+001	-1.275119e+002	-4.132472e+001	-1.275403e+002	-2.917514e+001	-1.647186e+002
412586250	-2.345991e+001	-1.443107e+002	-4.113173e+001	-1.281997e+002	-4.113396e+001	-1.282535e+002	-2.893986e+001	-1.663805e+002
420086000	-2.334291e+001	-1.459112e+002	-4.093595e+001	-1.288800e+002	-4.094042e+001	-1.289754e+002	-2.850546e+001	-1.686796e+002
427585750	-2.320726e+001	-1.474690e+002	-4.074514e+001	-1.297087e+002	-4.075156e+001	-1.297097e+002	-2.801246e+001	-1.690309e+002
435085500	-2.306386e+001	-1.489396e+002	-4.054660e+001	-1.305628e+002	-4.055587e+001	-1.305909e+002	-2.779709e+001	-1.691874e+002
442585250	-2.291185e+001	-1.503258e+002	-4.036915e+001	-1.314797e+002	-4.037715e+001	-1.314756e+002	-2.745565e+001	-1.665480e+002
450085000	-2.277448e+001	-1.516399e+002	-4.020166e+001	-1.323141e+002	-4.022774e+001	-1.323138e+002	-2.738929e+001	-1.665170e+002
457584750	-2.264514e+001	-1.529001e+002	-4.005200e+001	-1.330554e+002	-4.007749e+001	-1.330516e+002	-2.744247e+001	-1.658206e+002
465084500	-2.253922e+001	-1.540152e+002	-3.990009e+001	-1.338109e+002	-3.991427e+001	-1.337139e+002	-2.773169e+001	-1.658219e+002
472584250	-2.244125e+001	-1.552160e+002	-3.973823e+001	-1.345149e+002	-3.975622e+001	-1.344257e+002	-2.786266e+001	-1.671232e+002
480084000	-2.236490e+001	-1.564003e+002	-3.957976e+001	-1.352783e+002	-3.958845e+001	-1.351809e+002	-2.797442e+001	-1.697282e+002
487583750	-2.229472e+001	-1.576512e+002	-3.941960e+001	-1.360096e+002	-3.943209e+001	-1.359082e+002	-2.783368e+001	-1.729626e+002
495083500	-2.223143e+001	-1.589678e+002	-3.926340e+001	-1.367417e+002	-3.926165e+001	-1.367386e+002	-2.760899e+001	-1.755271e+002
502583250	-2.216516e+001	-1.603380e+002	-3.910387e+001	-1.375087e+002	-3.911327e+001	-1.375071e+002	-2.719548e+001	-1.777958e+002
510083000	-2.209343e+001	-1.617446e+002	-3.895755e+001	-1.383257e+002	-3.897232e+001	-1.382895e+002	-2.674332e+001	-1.786536e+002
517582750	-2.201491e+001	-1.631864e+002	-3.880920e+001	-1.391433e+002	-3.882805e+001	-1.390882e+002	-2.637131e+001	-1.788972e+002
525082500	-2.192992e+001	-1.646145e+002	-3.866311e+001	-1.399082e+002	-3.868180e+001	-1.399148e+002	-2.608548e+001	-1.785645e+002
532582250	-2.183719e+001	-1.660069e+002	-3.852046e+001	-1.406882e+002	-3.854205e+001	-1.406322e+002	-2.597160e+001	-1.779388e+002
540082000	-2.174549e+001	-1.673658e+002	-3.838146e+001	-1.414250e+002	-3.839143e+001	-1.413694e+002	-2.591064e+001	-1.777587e+002
547581750	-2.165661e+001	-1.686368e+002	-3.823064e+001	-1.422276e+002	-3.825288e+001	-1.421590e+002	-2.592161e+001	-1.782146e+002
555081500	-2.156640e+001	-1.698838e+002	-3.808561e+001	-1.430394e+002	-3.809471e+001	-1.429005e+002	-2.583913e+001	-1.792581e+002
562581250	-2.148427e+001	-1.710598e+002	-3.793786e+001	-1.437513e+002	-3.794440e+001	-1.436881e+002	-2.580152e+001	1.795332e+002
570081000	-2.140823e+001	-1.722017e+002	-3.778885e+001	-1.445166e+002	-3.779017e+001	-1.445010e+002	-2.567338e+001	1.780931e+002
577580750	-2.134380e+001	-1.733098e+002	-3.763326e+001	-1.453970e+002	-3.764264e+001	-1.454193e+002	-2.544923e+001	1.770033e+002
585080500	-2.129153e+001	-1.744142e+002	-3.748700e+001	-1.462440e+002	-3.749841e+001	-1.462807e+002	-2.522766e+001	1.763710e+002
592580250	-2.124819e+001	-1.755411e+002	-3.734103e+001	-1.471439e+002	-3.735624e+001	-1.471462e+002	-2.497550e+001	1.762176e+002
600080000	-2.121021e+001	-1.766949e+002	-3.720193e+001	-1.480194e+002	-3.722063e+001	-1.479837e+002	-2.477285e+001	1.761872e+002
607579750	-2.118353e+001	-1.779181e+002	-3.706791e+001	-1.489119e+002	-3.708622e+001	-1.488440e+002	-2.472692e+001	1.766582e+002
615079500	-2.115516e+001	-1.791999e+002	-3.693662e+001	-1.497510e+002	-3.695489e+001	-1.497339e+002	-2.476074e+001	1.769178e+002
622579250	-2.112951e+001	1.794558e+002	-3.681187e+001	-1.506771e+002	-3.682048e+001	-1.505536e+002	-2.481974e+001	1.764451e+002
630079000	-2.109392e+001	1.780485e+002	-3.668019e+001	-1.515696e+002	-3.669922e+001	-1.514005e+002	-2.497534e+001	1.752842e+002
637578750	-2.104852e+001	1.766504e+002	-3.656648e+001	-1.524039e+002	-3.657152e+001	-1.522637e+002	-2.500571e+001	1.732743e+002
645078500	-2.099352e+001	1.752485e+002	-3.644157e+001	-1.532837e+002	-3.644283e+001	-1.531310e+002	-2.495275e+001	1.704393e+002
652578250	-2.091902e+001	1.738717e+002	-3.633070e+001	-1.540987e+002	-3.631536e+001	-1.539305e+002	-2.468454e+001	1.691197e+002
660078000	-2.085361e+001	1.726131e+002	-3.620239e+001	-1.549679e+002	-3.618620e+001	-1.548147e+002	-2.449959e+001	1.671701e+002
667577750	-2.079039e+001	1.714395e+002	-3.608309e+001	-1.558312e+002	-3.605279e+001	-1.557288e+002	-2.420719e+001	1.659861e+002
675077500	-2.072823e+001	1.703242e+002	-3.597267e+001	-1.567435e+002	-3.594361e+001	-1.566819e+002	-2.395375e+001	1.652848e+002
682577250	-2.067844e+001	1.692728e+002	-3.585834e+001	-1.575993e+002	-3.582716e+001	-1.575791e+002	-2.374751e+001	1.652738e+002
690077000	-2.064068e+001	1.682597e+002	-3.574337e+001	-1.583381e+002	-3.572265e+001	-1.584252e+002	-2.359408e+001	1.653652e+002
697576750	-2.061816e+001	1.672337e+002	-3.561838e+001	-1.591644e+002	-3.560499e+001	-1.592394e+002	-2.354981e+001	1.652124e+002
705076500	-2.060211e+001	1.661610e+002	-3.549798e+001	-1.599680e+002	-3.549457e+001	-1.601119e+002	-2.345239e+001	1.647606e+002
712576250	-2.058811e+001	1.650271e+002	-3.537585e+001	-1.608398e+002	-3.537265e+001	-1.609631e+002	-2.346684e+001	1.640338e+002
720076000	-2.058057e+001	1.638059e+002	-3.525258e+001	-1.615960e+002	-3.526081e+001	-1.616867e+002	-2.342098e+001	1.631350e+002
727575750	-2.057139e+001	1.625098e+002	-3.511309e+001	-1.624328e+002	-3.513112e+001	-1.625058e+002	-2.334643e+001	1.618349e+002
735075500	-2.055546e+001	1.611628e+002	-3.498472e+001	-1.633675e+002	-3.500539e+001	-1.633299e+002	-2.323321e+001	1.605703e+002
742575250	-2.053590e+001	1.597993e+002	-3.486014e+001	-1.642473e+002	-3.487897e+001	-1.641607e+002	-2.307666e+001	1.594093e+002
750075000	-2.051205e+001	1.584604e+002	-3.472935e+001	-1.651280e+002	-3.474050e+001	-1.650969e+002	-2.291800e+001	1.591281e+002
757574750	-2.047918e+001	1.571259e+002	-3.460668e+001	-1.660832e+002	-3.460904e+001	-1.660066e+002	-2.278698e+001	1.587889e+002
765074500	-2.044618e+001	1.558765e+002	-3.448137e+001	-1.670460e+002	-3.447820e+001	-1.669732e+002	-2.269886e+001	1.586599e+002
772574250	-2.041645e+001	1.546600e+002	-3.435286e+001	-1.680081e+002	-3.435055e+001	-1.679814e+002	-2.270697e+001	1.584061e+002
780074000	-2.038723e+001	1.534879e+002	-3.423689e+001	-1.690392e+002	-3.422893e+001	-1.690172e+002	-2.273078e+001	1.578310e+002
787573750	-2.036015e+001	1.523606e+002	-3.412413e+001	-1.700703e+002	-3.411007e+001	-1.700348e+002	-2.278794e+001	1.569866e+002
795073500	-2.033796e+001	1.512654e+002	-3.402723e+001	-1.710170e+002	-3.400941e+001	-1.710580e+002	-2.285476e+001	1.555958e+002
802573250	-2.032271e+001	1.501535e+002	-3.392085e+001	-1.719554e+002	-3.390578e+001	-1.720397e+002	-2.286395e+001	1.540221e+002
810073000	-2.032268e+001	1.490746e+002	-3.381487e+001	-1.729011e+002	-3.381210e+001	-1.729473e+002	-2.281699e+001	1.521644e+002
817572750	-2.032866e+001	1.479998e+002	-3.371283e+001	-1.737895e+002	-3.370908e+001	-1.738231e+002	-2.272683e+001	1.503791e+002
825072500	-2.034352e+001	1.469111e+002	-3.360571e+001	-1.746888e+002	-3.359924e+001	-1.747278e+002	-2.253727e+001	1.485984e+002
832572250	-2.036360e+001	1.457816e+002	-3.350344e+001	-1.755712e+002	-3.350015e+001	-1.755904e+002	-2.238992e+001	1.476421e+002
840072000	-2.038736e+001	1.446029e+002	-3.339859e+001	-1.764626e+002	-3.339335e+001	-1.764716e+002	-2.221611e+001	1.468009e+002
847571750	-2.040971e+001	1.433540e+002	-3.327877e+001	-1.773851e+002	-3.328192e+001	-1.773775e+002	-2.209029e+001	1.460369e+002
855071500	-2.043154e+001	1.420672e+002	-3.317473e+001	-1.783171e+002	-3.317996e+001	-1.783116e+002	-2.203083e+001	1.455863e+002
862571250	-2.044296e+001	1.407753e+002	-3.307655e+001	-1.792841e+002	-3.307472e+001	-1.792792e+002	-2.193281e+001	1.445214e+002
870071000	-2.044348e+001	1.394681e+002	-3.297669e+001	1.797606e+002	-3.297890e+001	1.797962e+002	-2.187044e+001	1.438673e+002
877570750	-2.043924e+001	1.382170e+002	-3.288465e+001	1.787883e+002	-3.287805e+001	1.788383e+002	-2.180712e+001	1.431268e+002
885070500	-2.042562e+001	1.370018e+002	-3.279423e+001	1.778247e+002	-3.279087e+001	1.778837e+002	-2.174740e+001	1.421432e+002
892570250	-2.041523e+001	1.358464e+002	-3.270306e+001	1.769033e+002	-3.269166e+001	1.769432e+002	-2.164483e+001	1.416506e+002
900070000	-2.040777e+001	1.348115e+002	-3.261520e+001	1.759513e+002	-3.259011e+001	1.759471e+002	-2.161450e+001	1.411039e+002
907569750	-2.041145e+001	1.338409e+002	-3.252081e+001	1.750242e+002	-3.250409e+001	1.749639e+002	-2.155211e+001	1.406908e+002
915069500	-2.042913e+001	1.328888e+002	-3.242771e+001	1.740840e+002	-3.241291e+001	1.739990e+002	-2.154273e+001	1.400332e+002
922569250	-2.045869e+001	1.319424e+002	-3.233169e+001	1.730991e+002	-3.231577e+001	1.729387e+002	-2.155274e+001	1.394917e+002
930069000	-2.050110e+001	1.309709e+002	-3.223213e+001	1.721132e+002	-3.222261e+001	1.718835e+002	-2.157376e+001	1.388278e+002
937568750	-2.055410e+001	1.299322e+002	-3.214378e+001	1.710624e+002	-3.214619e+001	1.708039e+002	-2.161627e+001	1.378915e+002
945068500	-2.061143e+001	1.288314e+002	-3.206167e+001	1.700516e+002	-3.206635e+001	1.697698e+002	-2.166928e+001	1.371102e+002
952568250	-2.066600e+001	1.276321e+002	-3.198088e+001	1.690127e+002	-3.199778e+001	1.687331e+002	-2.170605e+001	1.356894e+002
960068000	-2.071176e+001	1.263817e+002	-3.189883e+001	1.679995e+002	-3.193043e+001	1.677722e+002	-2.167678e+001	1.343210e+002
967567750	-2.074240e+001	1.250836e+002	-3.182786e+001	1.670829e+002	-3.186884e+001	1.668807e+002	-2.163376e+001	1.329153e+002
975067500	-2.076575e+001	1.237701e+002	-3.174749e+001	1.661357e+002	-3.179071e+001	1.660490e+002	-2.157969e+001	1.315642e+002
982567250	-2.078219e+001	1.224957e+002	-3.165951e+001	1.652437e+002	-3.170806e+001	1.651959e+002	-2.146320e+001	1.303479e+002
990067000	-2.079870e+001	1.213249e+002	-3.157390e+001	1.643701e+002	-3.161926e+001	1.643944e+002	-2.141240e+001	1.295065e+002
997566750	-2.081422e+001	1.201890e+002	-3.147727e+001	1.635101e+002	-3.151894e+001	1.635855e+002	-2.135803e+001	1.283719e+002
1005066500	-2.084015e+001	1.191059e+002	-3.137802e+001	1.626197e+002	-3.140643e+001	1.626879e+002	-2.129244e+001	1.274986e+002
1012566250	-2.086753e+001	1.180479e+002	-3.128152e+001	1.616368e+002	-3.130548e+001	1.617437e+002	-2.125324e+001	1.265025e+002
1020066000	-2.090803e+001	1.170269e+002	-3.118442e+001	1.607047e+002	-3.120096e+001	1.607694e+002	-2.119474e+001	1.255714e+002
1027565750	-2.095868e+001	1.159811e+002	-3.108476e+001	1.597116e+002	-3.110295e+001	1.597288e+002	-2.119416e+001	1.244186e+002
1035065500	-2.101408e+001	1.148832e+002	-3.099410e+001	1.587560e+002	-3.101368e+001	1.587270e+002	-2.113036e+001	1.231514e+002
1042565250	-2.108171e+001	1.138139e+002	-3.090523e+001	1.577481e+002	-3.093158e+001	1.577618e+002	-2.103003e+001	1.223377e+002
1050065000	-2.114804e+001	1.127281e+002	-3.081807e+001	1.567361e+002	-3.084607e+001	1.567861e+002	-2.093540e+001	1.214204e+002
1057564750	-2.121876e+001	1.116199e+002	-3.073694e+001	1.557706e+002	-3.076550e+001	1.558445e+002	-2.086855e+001	1.208185e+002
1065064500	-2.129038e+001	1.104850e+002	-3.066579e+001	1.548375e+002	-3.068802e+001	1.549375e+002	-2.083441e+001	1.203827e+002
1072564250	-2.136703e+001	1.093811e+002	-3.058702e+001	1.539254e+002	-3.060081e+001	1.540433e+002	-2.080194e+001	1.201421e+002
1080064000	-2.144767e+001	1.082022e+002	-3.050324e+001	1.530155e+002	-3.051725e+001	1.530554e+002	-2.085327e+001	1.194571e+002
1087563750	-2.152909e+001	1.070187e+002	-3.041888e+001	1.520815e+002	-3.043781e+001	1.520990e+002	-2.090459e+001	1.186426e+002
1095063500	-2.161216e+001	1.058335e+002	-3.033811e+001	1.511144e+002	-3.036378e+001	1.510885e+002	-2.095622e+001	1.176756e+002
1102563250	-2.169288e+001	1.046710e+002	-3.026834e+001	1.500976e+002	-3.029803e+001	1.500690e+002	-2.102864e+001	1.168111e+002
1110063000	-2.177088e+001	1.034766e+002	-3.019599e+001	1.491575e+002	-3.023563e+001	1.491145e+002	-2.106633e+001	1.156107e+002
1117562750	-2.184776e+001	1.023164e+002	-3.012314e+001	1.481298e+002	-3.017606e+001	1.481493e+002	-2.106377e+001	1.142247e+002
1125062500	-2.192074e+001	1.011608e+002	-3.005762e+001	1.471415e+002	-3.011597e+001	1.472096e+002	-2.105872e+001	1.130457e+002
1132562250	-2.199553e+001	1.001075e+002	-2.999146e+001	1.461072e+002	-3.005955e+001	1.462839e+002	-2.105552e+001	1.118863e+002
1140062000	-2.207210e+001	9.910952e+001	-2.992735e+001	1.451016e+002	-2.999401e+001	1.453783e+002	-2.105870e+001	1.106564e+002
1147561750	-2.216347e+001	9.821533e+001	-2.987236e+001	1.440853e+002	-2.992667e+001	1.444514e+002	-2.104207e+001	1.097333e+002
