!Agilent Technologies,E5071C,MY46107260,A.09.30
!Date: Mon Jan 01 00:34:25 2001
!Data & Calibration Information:
!Freq	S11:SOLT2(ON)	S21:SOLT2(ON)	S12:SOLT2(ON)	S22:SOLT2(ON)
# Hz S dB R 50
100000	-3.410718e+001	1.343283e+002	-6.708400e+001	-8.809717e+000	-6.735204e+001	-9.334103e+000	-3.627974e+001	-1.983555e+000
7599750	-1.108439e+001	1.428161e+001	-6.712008e+001	1.206382e+002	-6.577973e+001	1.220289e+002	-3.602269e+001	-5.442838e+000
15099500	-1.097476e+001	3.535619e+000	-6.226353e+001	1.064981e+002	-6.181039e+001	1.030351e+002	-3.615443e+001	-1.195869e+001
22599250	-1.101275e+001	-1.775953e+000	-5.936712e+001	1.010157e+002	-5.887157e+001	9.796938e+001	-3.619170e+001	-1.761541e+001
30099000	-1.121512e+001	-5.629563e+000	-5.703434e+001	9.778990e+001	-5.654171e+001	9.553599e+001	-3.610151e+001	-2.440169e+001
37598750	-1.130198e+001	-8.950025e+000	-5.505329e+001	9.807007e+001	-5.454444e+001	9.561356e+001	-3.574061e+001	-3.133325e+001
45098500	-1.138862e+001	-1.173565e+001	-5.331791e+001	9.438964e+001	-5.291470e+001	9.223488e+001	-3.541961e+001	-3.642614e+001
52598250	-1.151614e+001	-1.472861e+001	-5.207314e+001	9.512178e+001	-5.157247e+001	9.300260e+001	-3.502622e+001	-4.088213e+001
60098000	-1.171660e+001	-1.731975e+001	-5.052672e+001	9.243499e+001	-5.019439e+001	9.031416e+001	-3.463125e+001	-4.335843e+001
67597750	-1.176265e+001	-2.044771e+001	-4.958483e+001	9.167977e+001	-4.921395e+001	8.952939e+001	-3.440954e+001	-4.684323e+001
75097500	-1.201278e+001	-2.360566e+001	-4.853696e+001	9.034176e+001	-4.819493e+001	8.811376e+001	-3.433499e+001	-5.064110e+001
82597250	-1.252334e+001	-2.756064e+001	-4.762790e+001	8.878214e+001	-4.734039e+001	8.682035e+001	-3.433382e+001	-5.531219e+001
90097000	-1.411148e+001	-3.056172e+001	-4.691060e+001	8.575574e+001	-4.667072e+001	8.430801e+001	-3.433379e+001	-6.095042e+001
97596750	-1.425445e+001	-1.026532e+001	-4.679003e+001	8.764400e+001	-4.648582e+001	8.651980e+001	-3.390276e+001	-6.774621e+001
105096500	-1.250023e+001	-1.784988e+001	-4.573191e+001	8.999698e+001	-4.546922e+001	8.798676e+001	-3.319136e+001	-7.426295e+001
112596250	-1.245455e+001	-2.336133e+001	-4.482299e+001	8.912579e+001	-4.462882e+001	8.735884e+001	-3.231991e+001	-7.797098e+001
120096000	-1.234214e+001	-2.665910e+001	-4.396926e+001	8.929483e+001	-4.375793e+001	8.698894e+001	-3.138257e+001	-8.010024e+001
127595750	-1.258977e+001	-2.912710e+001	-4.321506e+001	8.648875e+001	-4.302205e+001	8.488743e+001	-3.068815e+001	-8.059129e+001
135095500	-1.276406e+001	-3.167597e+001	-4.266673e+001	8.490034e+001	-4.251710e+001	8.316761e+001	-3.024691e+001	-7.980125e+001
142595250	-1.294574e+001	-3.398231e+001	-4.213891e+001	8.340626e+001	-4.200906e+001	8.178980e+001	-2.996880e+001	-7.875128e+001
150095000	-1.317122e+001	-3.621176e+001	-4.167000e+001	8.261767e+001	-4.157134e+001	8.103799e+001	-2.989685e+001	-7.879957e+001
157594750	-1.340819e+001	-3.816291e+001	-4.114331e+001	8.168260e+001	-4.107900e+001	8.024451e+001	-2.999503e+001	-7.897798e+001
165094500	-1.366228e+001	-4.009052e+001	-4.065132e+001	8.061967e+001	-4.060958e+001	7.932272e+001	-3.020914e+001	-8.108633e+001
172594250	-1.400602e+001	-4.203435e+001	-4.015738e+001	7.938660e+001	-4.012074e+001	7.827831e+001	-3.045073e+001	-8.482982e+001
180094000	-1.443714e+001	-4.330094e+001	-3.969718e+001	7.798981e+001	-3.968191e+001	7.695788e+001	-3.040480e+001	-8.985994e+001
187593750	-1.493532e+001	-4.360761e+001	-3.924088e+001	7.618183e+001	-3.922550e+001	7.537581e+001	-3.019519e+001	-9.549410e+001
195093500	-1.530093e+001	-4.145875e+001	-3.889416e+001	7.362745e+001	-3.883805e+001	7.309793e+001	-2.965533e+001	-1.003984e+002
202593250	-1.517970e+001	-3.906875e+001	-3.882658e+001	7.150770e+001	-3.871341e+001	7.093188e+001	-2.902755e+001	-1.032470e+002
210093000	-1.472189e+001	-3.892044e+001	-3.880082e+001	7.110055e+001	-3.869943e+001	7.032700e+001	-2.834790e+001	-1.052838e+002
217592750	-1.449679e+001	-4.175763e+001	-3.857870e+001	7.156310e+001	-3.848039e+001	7.061466e+001	-2.782700e+001	-1.055836e+002
225092500	-1.451231e+001	-4.472941e+001	-3.824686e+001	7.162397e+001	-3.816714e+001	7.059087e+001	-2.740439e+001	-1.054461e+002
232592250	-1.464031e+001	-4.676846e+001	-3.794662e+001	7.121609e+001	-3.786865e+001	7.024195e+001	-2.722966e+001	-1.051863e+002
240092000	-1.479939e+001	-4.909382e+001	-3.763067e+001	7.100255e+001	-3.757220e+001	7.000322e+001	-2.717422e+001	-1.060237e+002
247591750	-1.508437e+001	-5.108344e+001	-3.730435e+001	7.074087e+001	-3.727106e+001	6.980596e+001	-2.709879e+001	-1.071281e+002
255091500	-1.552270e+001	-5.214033e+001	-3.700654e+001	7.064802e+001	-3.697479e+001	6.982799e+001	-2.710834e+001	-1.088472e+002
262591250	-1.592338e+001	-5.111114e+001	-3.657579e+001	7.118267e+001	-3.653326e+001	7.044205e+001	-2.699981e+001	-1.111854e+002
270091000	-1.596915e+001	-4.966279e+001	-3.594602e+001	7.029346e+001	-3.588958e+001	6.959972e+001	-2.686410e+001	-1.134133e+002
277590750	-1.588930e+001	-4.918808e+001	-3.544929e+001	6.801561e+001	-3.540256e+001	6.727316e+001	-2.668644e+001	-1.156525e+002
285090500	-1.575569e+001	-5.075428e+001	-3.518322e+001	6.551833e+001	-3.513319e+001	6.478310e+001	-2.638561e+001	-1.177088e+002
292590250	-1.589740e+001	-5.217926e+001	-3.496989e+001	6.372514e+001	-3.492466e+001	6.297648e+001	-2.616904e+001	-1.194363e+002
300090000	-1.599107e+001	-5.265765e+001	-3.476132e+001	6.230180e+001	-3.473908e+001	6.147339e+001	-2.595245e+001	-1.203466e+002
307589750	-1.608340e+001	-5.371495e+001	-3.454482e+001	6.080978e+001	-3.455024e+001	6.003283e+001	-2.580603e+001	-1.213917e+002
315089500	-1.624627e+001	-5.342623e+001	-3.438778e+001	5.915104e+001	-3.441584e+001	5.863608e+001	-2.560141e+001	-1.229374e+002
322589250	-1.598042e+001	-5.302792e+001	-3.431195e+001	5.820650e+001	-3.430081e+001	5.794118e+001	-2.555734e+001	-1.248338e+002
330089000	-1.575723e+001	-5.506669e+001	-3.416569e+001	5.783073e+001	-3.413420e+001	5.748760e+001	-2.547161e+001	-1.265536e+002
337588750	-1.574115e+001	-5.764259e+001	-3.396538e+001	5.735224e+001	-3.393104e+001	5.693055e+001	-2.535678e+001	-1.284402e+002
345088500	-1.583758e+001	-5.974160e+001	-3.373479e+001	5.672500e+001	-3.370190e+001	5.629510e+001	-2.507689e+001	-1.307748e+002
352588250	-1.594734e+001	-6.157017e+001	-3.352095e+001	5.614003e+001	-3.347879e+001	5.559373e+001	-2.476421e+001	-1.323629e+002
360088000	-1.609608e+001	-6.328994e+001	-3.326437e+001	5.547403e+001	-3.324495e+001	5.492885e+001	-2.453345e+001	-1.335006e+002
367587750	-1.627397e+001	-6.474722e+001	-3.301560e+001	5.453200e+001	-3.299561e+001	5.405558e+001	-2.432144e+001	-1.343062e+002
375087500	-1.646899e+001	-6.599773e+001	-3.279722e+001	5.351827e+001	-3.277070e+001	5.305978e+001	-2.413943e+001	-1.351112e+002
382587250	-1.668978e+001	-6.708613e+001	-3.258155e+001	5.245347e+001	-3.256023e+001	5.207583e+001	-2.405375e+001	-1.355086e+002
390087000	-1.692525e+001	-6.772675e+001	-3.238516e+001	5.132097e+001	-3.234565e+001	5.102817e+001	-2.402808e+001	-1.363382e+002
397586750	-1.709676e+001	-6.783862e+001	-3.222409e+001	5.009634e+001	-3.214583e+001	4.985114e+001	-2.402274e+001	-1.376792e+002
405086500	-1.714033e+001	-6.821523e+001	-3.210658e+001	4.916881e+001	-3.199756e+001	4.852072e+001	-2.405316e+001	-1.393430e+002
412586250	-1.723025e+001	-6.933760e+001	-3.197392e+001	4.837573e+001	-3.190566e+001	4.733949e+001	-2.401595e+001	-1.412068e+002
420086000	-1.737574e+001	-7.041333e+001	-3.183328e+001	4.769462e+001	-3.181697e+001	4.664307e+001	-2.388540e+001	-1.435935e+002
427585750	-1.754601e+001	-7.124552e+001	-3.168500e+001	4.702195e+001	-3.168898e+001	4.605424e+001	-2.367836e+001	-1.458028e+002
435085500	-1.766376e+001	-7.169814e+001	-3.154153e+001	4.635253e+001	-3.156364e+001	4.539397e+001	-2.353593e+001	-1.477339e+002
442585250	-1.772454e+001	-7.244537e+001	-3.138672e+001	4.572388e+001	-3.143798e+001	4.486095e+001	-2.322677e+001	-1.484312e+002
450085000	-1.780929e+001	-7.333492e+001	-3.123042e+001	4.508626e+001	-3.129901e+001	4.433490e+001	-2.301939e+001	-1.498140e+002
457584750	-1.791747e+001	-7.415899e+001	-3.107902e+001	4.438465e+001	-3.116327e+001	4.379528e+001	-2.287440e+001	-1.503190e+002
465084500	-1.799541e+001	-7.462480e+001	-3.091967e+001	4.377814e+001	-3.100829e+001	4.338495e+001	-2.283498e+001	-1.507737e+002
472584250	-1.803338e+001	-7.535180e+001	-3.075333e+001	4.309445e+001	-3.083614e+001	4.281723e+001	-2.280707e+001	-1.515892e+002
480084000	-1.809387e+001	-7.611890e+001	-3.059321e+001	4.233864e+001	-3.066342e+001	4.215979e+001	-2.283435e+001	-1.527098e+002
487583750	-1.813710e+001	-7.691806e+001	-3.043437e+001	4.156997e+001	-3.049022e+001	4.148818e+001	-2.281874e+001	-1.544827e+002
495083500	-1.819184e+001	-7.773432e+001	-3.027220e+001	4.079187e+001	-3.030591e+001	4.071844e+001	-2.281173e+001	-1.562705e+002
502583250	-1.823354e+001	-7.865423e+001	-3.009622e+001	3.998031e+001	-3.012867e+001	3.985947e+001	-2.270283e+001	-1.584606e+002
510083000	-1.825792e+001	-7.977288e+001	-2.992127e+001	3.894709e+001	-2.994054e+001	3.879967e+001	-2.253855e+001	-1.602674e+002
517582750	-1.831043e+001	-8.118669e+001	-2.977715e+001	3.781552e+001	-2.979066e+001	3.763237e+001	-2.236277e+001	-1.619965e+002
525082500	-1.840763e+001	-8.257797e+001	-2.965131e+001	3.674463e+001	-2.966274e+001	3.654616e+001	-2.215952e+001	-1.632624e+002
532582250	-1.851624e+001	-8.387921e+001	-2.953731e+001	3.573862e+001	-2.954230e+001	3.553139e+001	-2.202608e+001	-1.640082e+002
540082000	-1.862979e+001	-8.509539e+001	-2.942506e+001	3.481539e+001	-2.942622e+001	3.457349e+001	-2.189842e+001	-1.643489e+002
547581750	-1.873277e+001	-8.627309e+001	-2.930864e+001	3.392744e+001	-2.930692e+001	3.363456e+001	-2.184642e+001	-1.652624e+002
555081500	-1.882393e+001	-8.745932e+001	-2.918626e+001	3.308010e+001	-2.918781e+001	3.275665e+001	-2.178779e+001	-1.660867e+002
562581250	-1.890694e+001	-8.866255e+001	-2.905638e+001	3.221740e+001	-2.906091e+001	3.185846e+001	-2.180681e+001	-1.669625e+002
570081000	-1.898467e+001	-8.989851e+001	-2.892124e+001	3.130829e+001	-2.893505e+001	3.095460e+001	-2.181961e+001	-1.681709e+002
577580750	-1.905828e+001	-9.114360e+001	-2.879521e+001	3.037311e+001	-2.880897e+001	3.000931e+001	-2.178834e+001	-1.697228e+002
585080500	-1.913502e+001	-9.233913e+001	-2.867126e+001	2.942191e+001	-2.868931e+001	2.905524e+001	-2.176868e+001	-1.715194e+002
592580250	-1.922233e+001	-9.345867e+001	-2.854375e+001	2.849803e+001	-2.856947e+001	2.812503e+001	-2.167110e+001	-1.730380e+002
600080000	-1.931468e+001	-9.452338e+001	-2.841646e+001	2.752685e+001	-2.844867e+001	2.716259e+001	-2.156898e+001	-1.744984e+002
607579750	-1.941866e+001	-9.548019e+001	-2.829925e+001	2.654234e+001	-2.833427e+001	2.623331e+001	-2.145523e+001	-1.755981e+002
615079500	-1.953275e+001	-9.635045e+001	-2.818358e+001	2.559435e+001	-2.821921e+001	2.531285e+001	-2.135654e+001	-1.764391e+002
622579250	-1.964333e+001	-9.723706e+001	-2.806177e+001	2.466415e+001	-2.810139e+001	2.442978e+001	-2.127715e+001	-1.772482e+002
630079000	-1.975731e+001	-9.826042e+001	-2.794331e+001	2.370194e+001	-2.797964e+001	2.351140e+001	-2.129204e+001	-1.778304e+002
637578750	-1.988824e+001	-9.939381e+001	-2.783031e+001	2.272994e+001	-2.786711e+001	2.259036e+001	-2.133421e+001	-1.788113e+002
645078500	-2.002299e+001	-1.005436e+002	-2.771881e+001	2.176008e+001	-2.775133e+001	2.168301e+001	-2.131880e+001	1.798657e+002
652578250	-2.015404e+001	-1.018074e+002	-2.761740e+001	2.083517e+001	-2.764081e+001	2.071829e+001	-2.135562e+001	1.784697e+002
660078000	-2.028178e+001	-1.031818e+002	-2.751090e+001	1.993336e+001	-2.753976e+001	1.980767e+001	-2.135673e+001	1.767257e+002
667577750	-2.040423e+001	-1.046089e+002	-2.740477e+001	1.899819e+001	-2.743150e+001	1.889650e+001	-2.132272e+001	1.746587e+002
675077500	-2.051752e+001	-1.060385e+002	-2.730292e+001	1.805921e+001	-2.732632e+001	1.794543e+001	-2.119456e+001	1.727964e+002
682577250	-2.061894e+001	-1.074054e+002	-2.720897e+001	1.710051e+001	-2.723138e+001	1.698865e+001	-2.108319e+001	1.712389e+002
690077000	-2.071751e+001	-1.086649e+002	-2.712287e+001	1.614636e+001	-2.714614e+001	1.602933e+001	-2.089449e+001	1.701061e+002
697576750	-2.081725e+001	-1.097367e+002	-2.704320e+001	1.519992e+001	-2.706667e+001	1.510012e+001	-2.079497e+001	1.690495e+002
705076500	-2.089675e+001	-1.108320e+002	-2.697460e+001	1.428273e+001	-2.699544e+001	1.420958e+001	-2.065461e+001	1.683773e+002
712576250	-2.097620e+001	-1.120020e+002	-2.690863e+001	1.341372e+001	-2.692302e+001	1.335152e+001	-2.059121e+001	1.679778e+002
720076000	-2.108972e+001	-1.132775e+002	-2.683975e+001	1.260599e+001	-2.685110e+001	1.251990e+001	-2.054555e+001	1.676023e+002
727575750	-2.123321e+001	-1.146263e+002	-2.677046e+001	1.181830e+001	-2.678364e+001	1.170886e+001	-2.057386e+001	1.670833e+002
735075500	-2.137940e+001	-1.160336e+002	-2.669725e+001	1.103453e+001	-2.670860e+001	1.091060e+001	-2.064570e+001	1.663028e+002
742575250	-2.152445e+001	-1.174379e+002	-2.662304e+001	1.026590e+001	-2.663615e+001	1.010127e+001	-2.072620e+001	1.653381e+002
750075000	-2.165972e+001	-1.189821e+002	-2.654567e+001	9.467916e+000	-2.656608e+001	9.288708e+000	-2.082469e+001	1.641413e+002
757574750	-2.179758e+001	-1.206158e+002	-2.646439e+001	8.658810e+000	-2.648939e+001	8.496300e+000	-2.087239e+001	1.625394e+002
765074500	-2.193793e+001	-1.221821e+002	-2.638550e+001	7.834731e+000	-2.641094e+001	7.696201e+000	-2.090544e+001	1.607744e+002
772574250	-2.206858e+001	-1.235458e+002	-2.631114e+001	6.983492e+000	-2.633293e+001	6.871009e+000	-2.090024e+001	1.589718e+002
780074000	-2.219870e+001	-1.249036e+002	-2.623513e+001	6.112705e+000	-2.625547e+001	6.027182e+000	-2.085485e+001	1.571312e+002
787573750	-2.234391e+001	-1.263579e+002	-2.616583e+001	5.216044e+000	-2.617966e+001	5.173659e+000	-2.072333e+001	1.556899e+002
795073500	-2.248768e+001	-1.277335e+002	-2.610203e+001	4.360500e+000	-2.611252e+001	4.310756e+000	-2.063527e+001	1.545976e+002
802573250	-2.262630e+001	-1.289493e+002	-2.603784e+001	3.586766e+000	-2.604570e+001	3.521286e+000	-2.055477e+001	1.539698e+002
810073000	-2.274035e+001	-1.301272e+002	-2.596476e+001	2.845065e+000	-2.596630e+001	2.726026e+000	-2.053879e+001	1.534285e+002
817572750	-2.285103e+001	-1.313531e+002	-2.588172e+001	2.064675e+000	-2.588634e+001	1.902601e+000	-2.055946e+001	1.527220e+002
825072500	-2.294849e+001	-1.325754e+002	-2.579577e+001	1.240664e+000	-2.580817e+001	1.036055e+000	-2.059808e+001	1.520332e+002
832572250	-2.305240e+001	-1.337560e+002	-2.571106e+001	4.218528e-001	-2.573111e+001	2.161949e-001	-2.072244e+001	1.511175e+002
840072000	-2.315812e+001	-1.351824e+002	-2.562002e+001	-4.554753e-001	-2.564773e+001	-6.221430e-001	-2.080014e+001	1.495720e+002
847571750	-2.327949e+001	-1.368214e+002	-2.553165e+001	-1.395512e+000	-2.556181e+001	-1.520845e+000	-2.087924e+001	1.476902e+002
855071500	-2.341084e+001	-1.385088e+002	-2.544791e+001	-2.337993e+000	-2.547687e+001	-2.419206e+000	-2.089442e+001	1.459517e+002
862571250	-2.353580e+001	-1.401861e+002	-2.536542e+001	-3.312095e+000	-2.539570e+001	-3.363217e+000	-2.081487e+001	1.440233e+002
870071000	-2.365833e+001	-1.419573e+002	-2.528995e+001	-4.252364e+000	-2.531538e+001	-4.285401e+000	-2.069923e+001	1.426178e+002
877570750	-2.377794e+001	-1.437883e+002	-2.521413e+001	-5.184527e+000	-2.523952e+001	-5.208404e+000	-2.057469e+001	1.417354e+002
885070500	-2.389395e+001	-1.455536e+002	-2.514020e+001	-6.092522e+000	-2.516322e+001	-6.103463e+000	-2.047375e+001	1.411895e+002
892570250	-2.400554e+001	-1.472703e+002	-2.506885e+001	-6.971139e+000	-2.509030e+001	-6.997287e+000	-2.039172e+001	1.412729e+002
900070000	-2.411548e+001	-1.492534e+002	-2.499743e+001	-7.854558e+000	-2.501352e+001	-7.876282e+000	-2.044584e+001	1.413519e+002
907569750	-2.422013e+001	-1.513104e+002	-2.492603e+001	-8.723965e+000	-2.493912e+001	-8.772397e+000	-2.055957e+001	1.413629e+002
915069500	-2.433048e+001	-1.533949e+002	-2.485282e+001	-9.597670e+000	-2.486509e+001	-9.646953e+000	-2.075664e+001	1.408418e+002
922569250	-2.444169e+001	-1.552420e+002	-2.477896e+001	-1.048444e+001	-2.479400e+001	-1.053656e+001	-2.098543e+001	1.395138e+002
930069000	-2.454035e+001	-1.569584e+002	-2.470643e+001	-1.136639e+001	-2.472518e+001	-1.143324e+001	-2.116991e+001	1.378136e+002
937568750	-2.465191e+001	-1.586600e+002	-2.463520e+001	-1.226069e+001	-2.465609e+001	-1.230494e+001	-2.129880e+001	1.356306e+002
945068500	-2.465833e+001	-1.581503e+002	-2.455994e+001	-1.305027e+001	-2.458769e+001	-1.319376e+001	-2.134166e+001	1.331764e+002
952568250	-2.474030e+001	-1.590985e+002	-2.449229e+001	-1.390612e+001	-2.452091e+001	-1.408658e+001	-2.125586e+001	1.309266e+002
960068000	-2.500523e+001	-1.617858e+002	-2.443364e+001	-1.488576e+001	-2.445792e+001	-1.499249e+001	-2.110076e+001	1.291563e+002
967567750	-2.527161e+001	-1.644534e+002	-2.437773e+001	-1.584100e+001	-2.439589e+001	-1.589331e+001	-2.095972e+001	1.283276e+002
975067500	-2.548175e+001	-1.669409e+002	-2.431967e+001	-1.678433e+001	-2.433330e+001	-1.681020e+001	-2.088197e+001	1.281105e+002
982567250	-2.564559e+001	-1.693411e+002	-2.426423e+001	-1.770667e+001	-2.427706e+001	-1.774208e+001	-2.085612e+001	1.281432e+002
990067000	-2.582874e+001	-1.721349e+002	-2.421359e+001	-1.863961e+001	-2.422317e+001	-1.863918e+001	-2.095932e+001	1.279971e+002
997566750	-2.597242e+001	-1.750375e+002	-2.416076e+001	-1.954835e+001	-2.416613e+001	-1.952377e+001	-2.111874e+001	1.276070e+002
1005066500	-2.606362e+001	-1.776872e+002	-2.410862e+001	-2.044951e+001	-2.410958e+001	-2.043567e+001	-2.131689e+001	1.266159e+002
1012566250	-2.622643e+001	1.793315e+002	-2.405991e+001	-2.138674e+001	-2.405334e+001	-2.137734e+001	-2.150225e+001	1.248447e+002
1020066000	-2.648255e+001	1.763878e+002	-2.401862e+001	-2.230225e+001	-2.400362e+001	-2.232226e+001	-2.161473e+001	1.229139e+002
1027565750	-2.656805e+001	1.737895e+002	-2.396888e+001	-2.322667e+001	-2.395324e+001	-2.326336e+001	-2.164195e+001	1.205768e+002
1035065500	-2.641528e+001	1.724913e+002	-2.390980e+001	-2.413887e+001	-2.391118e+001	-2.420916e+001	-2.154465e+001	1.187623e+002
1042565250	-2.650637e+001	1.707187e+002	-2.386224e+001	-2.504617e+001	-2.387092e+001	-2.512732e+001	-2.139070e+001	1.176624e+002
1050065000	-2.663328e+001	1.686758e+002	-2.382075e+001	-2.595771e+001	-2.383183e+001	-2.603228e+001	-2.126239e+001	1.171479e+002
1057564750	-2.676942e+001	1.664702e+002	-2.377855e+001	-2.684465e+001	-2.379111e+001	-2.691912e+001	-2.121501e+001	1.173411e+002
1065064500	-2.690092e+001	1.640259e+002	-2.373562e+001	-2.775514e+001	-2.374881e+001	-2.779270e+001	-2.125325e+001	1.177258e+002
1072564250	-2.704723e+001	1.616071e+002	-2.369147e+001	-2.864313e+001	-2.370454e+001	-2.865656e+001	-2.140300e+001	1.183621e+002
1080064000	-2.718960e+001	1.592084e+002	-2.364600e+001	-2.952065e+001	-2.365590e+001	-2.952577e+001	-2.169277e+001	1.182662e+002
1087563750	-2.729573e+001	1.569246e+002	-2.359734e+001	-3.038283e+001	-2.360353e+001	-3.040605e+001	-2.202716e+001	1.173614e+002
1095063500	-2.742922e+001	1.546699e+002	-2.354262e+001	-3.126126e+001	-2.354968e+001	-3.131152e+001	-2.237175e+001	1.153159e+002
1102563250	-2.756843e+001	1.525668e+002	-2.348820e+001	-3.214121e+001	-2.349621e+001	-3.224363e+001	-2.260270e+001	1.124668e+002
1110063000	-2.763706e+001	1.497898e+002	-2.343262e+001	-3.309697e+001	-2.344017e+001	-3.318886e+001	-2.267744e+001	1.093682e+002
1117562750	-2.768447e+001	1.466690e+002	-2.338158e+001	-3.407974e+001	-2.339296e+001	-3.415078e+001	-2.254784e+001	1.065314e+002
1125062500	-2.775393e+001	1.439463e+002	-2.333361e+001	-3.504128e+001	-2.334721e+001	-3.510423e+001	-2.234098e+001	1.048768e+002
1132562250	-2.780683e+001	1.416101e+002	-2.328490e+001	-3.597988e+001	-2.330380e+001	-3.602620e+001	-2.212183e+001	1.043372e+002
1140062000	-2.785153e+001	1.393317e+002	-2.324407e+001	-3.690274e+001	-2.325990e+001	-3.692628e+001	-2.203997e+001	1.047584e+002
1147561750	-2.789711e+001	1.371710e+002	-2.319542e+001	-3.780278e+001	-2.321238e+001	-3.780961e+001	-2.202227e+001	1.058431e+002
