!Agilent Technologies,E5071C,MY46107260,A.09.30
!Date: Mon Jan 01 00:38:27 2001
!Data & Calibration Information:
!Freq	S11:SOLT2(ON)	S21:SOLT2(ON)	S12:SOLT2(ON)	S22:SOLT2(ON)
# Hz S dB R 50
100000	-7.217534e+001	-1.105048e+001	5.645991e-004	-2.179250e-002	-2.092538e-003	-1.669057e-002	-6.035002e+001	-1.308183e+001
7599750	-5.857766e+001	-7.791307e+001	-1.010506e-003	-9.215915e-001	-4.471732e-003	-9.216952e-001	-5.721054e+001	-4.723978e+001
15099500	-5.266094e+001	-8.588008e+001	-2.977499e-003	-1.815429e+000	-6.862243e-003	-1.815594e+000	-5.305611e+001	-7.935609e+001
22599250	-4.888369e+001	-8.972347e+001	-5.817602e-003	-2.711428e+000	-9.331921e-003	-2.710123e+000	-5.027782e+001	-9.491942e+001
30099000	-4.626814e+001	-9.278664e+001	-8.460724e-003	-3.595894e+000	-1.150232e-002	-3.592295e+000	-4.696096e+001	-9.707808e+001
37598750	-4.419931e+001	-9.560328e+001	-1.016493e-002	-4.476301e+000	-1.343866e-002	-4.477422e+000	-4.447126e+001	-1.004216e+002
45098500	-4.253465e+001	-9.765130e+001	-1.211103e-002	-5.358247e+000	-1.532530e-002	-5.356611e+000	-4.251992e+001	-9.994232e+001
52598250	-4.113392e+001	-1.000729e+002	-1.395807e-002	-6.244372e+000	-1.719221e-002	-6.241612e+000	-4.087039e+001	-1.013710e+002
60098000	-4.001042e+001	-1.024522e+002	-1.577363e-002	-7.124339e+000	-1.889650e-002	-7.122826e+000	-3.990187e+001	-1.018922e+002
67597750	-3.904327e+001	-1.047753e+002	-1.730642e-002	-8.005375e+000	-2.090037e-002	-8.000824e+000	-3.915154e+001	-1.006396e+002
75097500	-3.826614e+001	-1.071756e+002	-1.906856e-002	-8.886482e+000	-2.258115e-002	-8.878780e+000	-3.839215e+001	-1.004544e+002
82597250	-3.760497e+001	-1.094665e+002	-2.091002e-002	-9.762021e+000	-2.431818e-002	-9.758065e+000	-3.780875e+001	-1.015932e+002
90097000	-3.703425e+001	-1.117838e+002	-2.305239e-002	-1.064039e+001	-2.604649e-002	-1.063937e+001	-3.736798e+001	-1.020325e+002
97596750	-3.661676e+001	-1.133168e+002	-2.416584e-002	-1.151975e+001	-2.722088e-002	-1.151579e+001	-3.676677e+001	-1.033421e+002
105096500	-3.620108e+001	-1.145190e+002	-2.595627e-002	-1.240146e+001	-2.902400e-002	-1.240014e+001	-3.608747e+001	-1.039571e+002
112596250	-3.586101e+001	-1.148100e+002	-2.821422e-002	-1.328367e+001	-3.162115e-002	-1.327912e+001	-3.555976e+001	-1.050180e+002
120096000	-3.550490e+001	-1.143001e+002	-3.027191e-002	-1.415997e+001	-3.381592e-002	-1.415586e+001	-3.512353e+001	-1.061258e+002
127595750	-3.512724e+001	-1.131316e+002	-3.242626e-002	-1.503397e+001	-3.592247e-002	-1.503323e+001	-3.480959e+001	-1.073385e+002
135095500	-3.471907e+001	-1.118387e+002	-3.453835e-002	-1.591740e+001	-3.823893e-002	-1.590853e+001	-3.452872e+001	-1.102270e+002
142595250	-3.423201e+001	-1.107671e+002	-3.744804e-002	-1.679492e+001	-4.119728e-002	-1.677831e+001	-3.434866e+001	-1.140445e+002
150095000	-3.378062e+001	-1.098311e+002	-3.994248e-002	-1.765643e+001	-4.321621e-002	-1.763891e+001	-3.426532e+001	-1.178744e+002
157594750	-3.317141e+001	-1.093338e+002	-4.122293e-002	-1.852949e+001	-4.419043e-002	-1.851149e+001	-3.385847e+001	-1.218868e+002
165094500	-3.250923e+001	-1.097542e+002	-4.274495e-002	-1.940331e+001	-4.558523e-002	-1.938396e+001	-3.319980e+001	-1.256936e+002
172594250	-3.179956e+001	-1.108823e+002	-4.443058e-002	-2.027984e+001	-4.686312e-002	-2.025680e+001	-3.233826e+001	-1.287621e+002
180094000	-3.111123e+001	-1.127608e+002	-4.648340e-002	-2.115733e+001	-4.819458e-002	-2.113182e+001	-3.145824e+001	-1.298809e+002
187593750	-3.045626e+001	-1.151264e+002	-4.877723e-002	-2.203232e+001	-4.969536e-002	-2.201026e+001	-3.060752e+001	-1.302142e+002
195093500	-2.988132e+001	-1.175190e+002	-5.118699e-002	-2.290593e+001	-5.225086e-002	-2.289139e+001	-2.984110e+001	-1.293151e+002
202593250	-2.938603e+001	-1.199774e+002	-5.365092e-002	-2.377774e+001	-5.516134e-002	-2.376791e+001	-2.924671e+001	-1.280882e+002
210093000	-2.900926e+001	-1.222812e+002	-5.615716e-002	-2.465092e+001	-5.857778e-002	-2.464505e+001	-2.873353e+001	-1.268157e+002
217592750	-2.876502e+001	-1.244823e+002	-5.887863e-002	-2.552249e+001	-6.211765e-002	-2.550850e+001	-2.849661e+001	-1.258506e+002
225092500	-2.865109e+001	-1.263799e+002	-6.097066e-002	-2.638505e+001	-6.479559e-002	-2.637087e+001	-2.840994e+001	-1.247548e+002
232592250	-2.863580e+001	-1.280151e+002	-6.227115e-002	-2.724848e+001	-6.637163e-002	-2.722576e+001	-2.851404e+001	-1.251979e+002
240092000	-2.871456e+001	-1.292896e+002	-6.368830e-002	-2.811276e+001	-6.683262e-002	-2.808702e+001	-2.855199e+001	-1.257033e+002
247591750	-2.880420e+001	-1.303341e+002	-6.458195e-002	-2.898340e+001	-6.691371e-002	-2.895844e+001	-2.865172e+001	-1.266445e+002
255091500	-2.888740e+001	-1.310978e+002	-6.560528e-002	-2.985148e+001	-6.764880e-002	-2.983220e+001	-2.862249e+001	-1.282760e+002
262591250	-2.889556e+001	-1.316288e+002	-6.672630e-002	-3.072453e+001	-6.827864e-002	-3.070968e+001	-2.862855e+001	-1.295469e+002
270091000	-2.879286e+001	-1.318705e+002	-6.838884e-002	-3.159472e+001	-6.945932e-002	-3.158703e+001	-2.862909e+001	-1.309609e+002
277590750	-2.857588e+001	-1.320842e+002	-7.017184e-002	-3.247015e+001	-7.170088e-002	-3.246410e+001	-2.845676e+001	-1.326403e+002
285090500	-2.824482e+001	-1.323381e+002	-7.264964e-002	-3.334156e+001	-7.508210e-002	-3.334046e+001	-2.822390e+001	-1.340392e+002
292590250	-2.785497e+001	-1.327781e+002	-7.561650e-002	-3.421532e+001	-7.867394e-002	-3.421255e+001	-2.805280e+001	-1.358007e+002
300090000	-2.744375e+001	-1.334525e+002	-7.846332e-002	-3.507983e+001	-8.254207e-002	-3.506923e+001	-2.789978e+001	-1.374699e+002
307589750	-2.706158e+001	-1.343261e+002	-8.097240e-002	-3.593879e+001	-8.530736e-002	-3.591768e+001	-2.775876e+001	-1.395435e+002
315089500	-2.671565e+001	-1.354924e+002	-8.354916e-002	-3.680400e+001	-8.713912e-002	-3.677025e+001	-2.728727e+001	-1.417221e+002
322589250	-2.644964e+001	-1.368276e+002	-8.511688e-002	-3.766171e+001	-8.713095e-002	-3.762847e+001	-2.701119e+001	-1.438533e+002
330089000	-2.624397e+001	-1.382991e+002	-8.618276e-002	-3.852297e+001	-8.622808e-002	-3.849640e+001	-2.661460e+001	-1.450459e+002
337588750	-2.611875e+001	-1.398611e+002	-8.720046e-002	-3.939329e+001	-8.620873e-002	-3.938331e+001	-2.631139e+001	-1.459132e+002
345088500	-2.604700e+001	-1.413471e+002	-8.811219e-002	-4.025884e+001	-8.809303e-002	-4.027861e+001	-2.592179e+001	-1.461615e+002
352588250	-2.600310e+001	-1.428097e+002	-8.927456e-002	-4.112933e+001	-9.281982e-002	-4.116659e+001	-2.552774e+001	-1.458636e+002
360088000	-2.597242e+001	-1.439996e+002	-9.126246e-002	-4.200761e+001	-9.829503e-002	-4.204739e+001	-2.545806e+001	-1.453942e+002
367587750	-2.593054e+001	-1.450638e+002	-9.390935e-002	-4.288201e+001	-1.041052e-001	-4.290596e+001	-2.539956e+001	-1.449019e+002
375087500	-2.585207e+001	-1.460237e+002	-9.700945e-002	-4.375202e+001	-1.081762e-001	-4.374849e+001	-2.539302e+001	-1.451919e+002
382587250	-2.574833e+001	-1.468596e+002	-1.002693e-001	-4.461748e+001	-1.097033e-001	-4.458518e+001	-2.547095e+001	-1.454752e+002
390087000	-2.560616e+001	-1.477503e+002	-1.031756e-001	-4.547375e+001	-1.089854e-001	-4.542652e+001	-2.547930e+001	-1.470667e+002
397586750	-2.543089e+001	-1.487145e+002	-1.052171e-001	-4.633338e+001	-1.067301e-001	-4.628165e+001	-2.553162e+001	-1.489511e+002
405086500	-2.526336e+001	-1.498343e+002	-1.066184e-001	-4.719340e+001	-1.049192e-001	-4.715656e+001	-2.551899e+001	-1.517761e+002
412586250	-2.508109e+001	-1.509570e+002	-1.077773e-001	-4.805777e+001	-1.046967e-001	-4.804258e+001	-2.537042e+001	-1.536093e+002
420086000	-2.491463e+001	-1.521655e+002	-1.093002e-001	-4.892025e+001	-1.068314e-001	-4.893630e+001	-2.509391e+001	-1.555591e+002
427585750	-2.475351e+001	-1.534807e+002	-1.106228e-001	-4.978566e+001	-1.111822e-001	-4.981979e+001	-2.481488e+001	-1.568465e+002
435085500	-2.462120e+001	-1.546863e+002	-1.124868e-001	-5.065640e+001	-1.171677e-001	-5.069808e+001	-2.467853e+001	-1.579629e+002
442585250	-2.448197e+001	-1.558520e+002	-1.149669e-001	-5.151764e+001	-1.238848e-001	-5.154719e+001	-2.441300e+001	-1.570327e+002
450085000	-2.436358e+001	-1.571571e+002	-1.160792e-001	-5.238658e+001	-1.277763e-001	-5.238346e+001	-2.420571e+001	-1.579278e+002
457584750	-2.426829e+001	-1.584936e+002	-1.179364e-001	-5.325396e+001	-1.286204e-001	-5.322200e+001	-2.414391e+001	-1.585415e+002
465084500	-2.420732e+001	-1.596326e+002	-1.206220e-001	-5.412070e+001	-1.286576e-001	-5.406410e+001	-2.422900e+001	-1.593988e+002
472584250	-2.413863e+001	-1.607842e+002	-1.235694e-001	-5.498336e+001	-1.272693e-001	-5.491878e+001	-2.422077e+001	-1.612106e+002
480084000	-2.407665e+001	-1.618926e+002	-1.262181e-001	-5.583880e+001	-1.258936e-001	-5.578067e+001	-2.423214e+001	-1.633981e+002
487583750	-2.402070e+001	-1.630207e+002	-1.276978e-001	-5.669170e+001	-1.252864e-001	-5.665492e+001	-2.403419e+001	-1.659365e+002
495083500	-2.395824e+001	-1.642220e+002	-1.278030e-001	-5.754802e+001	-1.254205e-001	-5.753595e+001	-2.389887e+001	-1.679818e+002
502583250	-2.390559e+001	-1.653971e+002	-1.275476e-001	-5.840540e+001	-1.276388e-001	-5.841874e+001	-2.356499e+001	-1.694697e+002
510083000	-2.385091e+001	-1.666891e+002	-1.273888e-001	-5.926952e+001	-1.307271e-001	-5.929807e+001	-2.332289e+001	-1.697570e+002
517582750	-2.379534e+001	-1.679004e+002	-1.276427e-001	-6.014473e+001	-1.351642e-001	-6.017020e+001	-2.313647e+001	-1.701131e+002
525082500	-2.373694e+001	-1.691684e+002	-1.287627e-001	-6.101997e+001	-1.390517e-001	-6.103834e+001	-2.300111e+001	-1.698536e+002
532582250	-2.366592e+001	-1.703539e+002	-1.307063e-001	-6.189338e+001	-1.418059e-001	-6.188821e+001	-2.298662e+001	-1.699420e+002
540082000	-2.358436e+001	-1.715513e+002	-1.339810e-001	-6.276436e+001	-1.440201e-001	-6.273891e+001	-2.303260e+001	-1.700863e+002
547581750	-2.349744e+001	-1.726519e+002	-1.375474e-001	-6.363104e+001	-1.450067e-001	-6.358505e+001	-2.303911e+001	-1.714138e+002
555081500	-2.340042e+001	-1.736468e+002	-1.410253e-001	-6.449176e+001	-1.446331e-001	-6.444413e+001	-2.303674e+001	-1.726224e+002
562581250	-2.330431e+001	-1.745257e+002	-1.438512e-001	-6.534668e+001	-1.436235e-001	-6.530626e+001	-2.311560e+001	-1.744846e+002
570081000	-2.320467e+001	-1.752766e+002	-1.453017e-001	-6.619836e+001	-1.432223e-001	-6.617562e+001	-2.305026e+001	-1.765992e+002
577580750	-2.311506e+001	-1.759813e+002	-1.459227e-001	-6.705408e+001	-1.433834e-001	-6.705038e+001	-2.291996e+001	-1.780738e+002
585080500	-2.304367e+001	-1.766863e+002	-1.456115e-001	-6.791038e+001	-1.442889e-001	-6.793209e+001	-2.282208e+001	-1.795718e+002
592580250	-2.299837e+001	-1.775000e+002	-1.449346e-001	-6.878097e+001	-1.460565e-001	-6.881388e+001	-2.271468e+001	1.797232e+002
600080000	-2.296351e+001	-1.784145e+002	-1.446991e-001	-6.965767e+001	-1.491670e-001	-6.969804e+001	-2.265449e+001	1.790641e+002
607579750	-2.294605e+001	-1.794218e+002	-1.458523e-001	-7.053982e+001	-1.526409e-001	-7.056885e+001	-2.262214e+001	1.784932e+002
615079500	-2.292819e+001	1.794161e+002	-1.490124e-001	-7.142150e+001	-1.563580e-001	-7.143676e+001	-2.267517e+001	1.783704e+002
622579250	-2.290644e+001	1.780851e+002	-1.531765e-001	-7.229786e+001	-1.602940e-001	-7.229642e+001	-2.271030e+001	1.773511e+002
630079000	-2.286585e+001	1.766889e+002	-1.582460e-001	-7.316436e+001	-1.628731e-001	-7.315624e+001	-2.286164e+001	1.760895e+002
637578750	-2.279334e+001	1.753373e+002	-1.630897e-001	-7.401850e+001	-1.652671e-001	-7.400769e+001	-2.286116e+001	1.742024e+002
645078500	-2.270153e+001	1.739305e+002	-1.667088e-001	-7.486420e+001	-1.671111e-001	-7.485790e+001	-2.274563e+001	1.716255e+002
652578250	-2.259360e+001	1.726246e+002	-1.685601e-001	-7.570191e+001	-1.698000e-001	-7.571603e+001	-2.255462e+001	1.701467e+002
660078000	-2.248854e+001	1.715275e+002	-1.684272e-001	-7.654217e+001	-1.717398e-001	-7.657181e+001	-2.237023e+001	1.682169e+002
667577750	-2.239382e+001	1.705659e+002	-1.669349e-001	-7.739276e+001	-1.741595e-001	-7.743287e+001	-2.215357e+001	1.668410e+002
675077500	-2.231695e+001	1.696438e+002	-1.648750e-001	-7.825888e+001	-1.758045e-001	-7.829270e+001	-2.195662e+001	1.660504e+002
682577250	-2.226980e+001	1.687847e+002	-1.639440e-001	-7.914056e+001	-1.771767e-001	-7.915974e+001	-2.188884e+001	1.658656e+002
690077000	-2.225285e+001	1.679328e+002	-1.645704e-001	-8.002828e+001	-1.789537e-001	-8.002303e+001	-2.179938e+001	1.659858e+002
697576750	-2.226958e+001	1.669767e+002	-1.674496e-001	-8.091838e+001	-1.802130e-001	-8.088720e+001	-2.185851e+001	1.658357e+002
705076500	-2.230236e+001	1.659278e+002	-1.719595e-001	-8.180024e+001	-1.823535e-001	-8.175028e+001	-2.186068e+001	1.655362e+002
712576250	-2.235008e+001	1.647781e+002	-1.775754e-001	-8.267403e+001	-1.847293e-001	-8.261306e+001	-2.191987e+001	1.646814e+002
720076000	-2.239489e+001	1.635726e+002	-1.832330e-001	-8.352706e+001	-1.875636e-001	-8.346893e+001	-2.193729e+001	1.635668e+002
727575750	-2.241806e+001	1.623840e+002	-1.872763e-001	-8.436692e+001	-1.898245e-001	-8.431348e+001	-2.187191e+001	1.622670e+002
735075500	-2.241280e+001	1.612670e+002	-1.892080e-001	-8.519578e+001	-1.900916e-001	-8.515640e+001	-2.181939e+001	1.607254e+002
742575250	-2.238553e+001	1.602185e+002	-1.883447e-001	-8.602719e+001	-1.890335e-001	-8.600512e+001	-2.170250e+001	1.596994e+002
750075000	-2.233001e+001	1.592847e+002	-1.851086e-001	-8.687178e+001	-1.868386e-001	-8.686981e+001	-2.155938e+001	1.590763e+002
757574750	-2.225779e+001	1.583778e+002	-1.811627e-001	-8.773397e+001	-1.833482e-001	-8.774709e+001	-2.151161e+001	1.586770e+002
765074500	-2.217563e+001	1.574627e+002	-1.775520e-001	-8.861161e+001	-1.807100e-001	-8.863701e+001	-2.153271e+001	1.584057e+002
772574250	-2.210712e+001	1.565360e+002	-1.762110e-001	-8.950753e+001	-1.796460e-001	-8.954090e+001	-2.161073e+001	1.581022e+002
780074000	-2.205612e+001	1.554939e+002	-1.775210e-001	-9.040968e+001	-1.813906e-001	-9.044879e+001	-2.170484e+001	1.570733e+002
787573750	-2.200736e+001	1.543832e+002	-1.820664e-001	-9.131001e+001	-1.864931e-001	-9.134991e+001	-2.181090e+001	1.563058e+002
795073500	-2.197550e+001	1.532171e+002	-1.885242e-001	-9.219519e+001	-1.934958e-001	-9.223668e+001	-2.194282e+001	1.547999e+002
802573250	-2.195603e+001	1.519500e+002	-1.961837e-001	-9.306344e+001	-2.014706e-001	-9.309444e+001	-2.200182e+001	1.529379e+002
810073000	-2.195316e+001	1.506828e+002	-2.028575e-001	-9.390982e+001	-2.082886e-001	-9.393387e+001	-2.196996e+001	1.510492e+002
817572750	-2.195912e+001	1.494500e+002	-2.072633e-001	-9.474429e+001	-2.127703e-001	-9.475645e+001	-2.192794e+001	1.494203e+002
825072500	-2.197631e+001	1.482742e+002	-2.086546e-001	-9.557359e+001	-2.141261e-001	-9.558073e+001	-2.185896e+001	1.476212e+002
832572250	-2.199958e+001	1.471679e+002	-2.071497e-001	-9.641030e+001	-2.124970e-001	-9.641603e+001	-2.177366e+001	1.461319e+002
840072000	-2.202388e+001	1.461213e+002	-2.039074e-001	-9.725771e+001	-2.100552e-001	-9.727137e+001	-2.167341e+001	1.450663e+002
847571750	-2.204926e+001	1.451226e+002	-2.002551e-001	-9.812830e+001	-2.087864e-001	-9.814521e+001	-2.158009e+001	1.440610e+002
855071500	-2.208337e+001	1.441037e+002	-1.989236e-001	-9.901090e+001	-2.096910e-001	-9.903455e+001	-2.156632e+001	1.436704e+002
862571250	-2.210159e+001	1.431000e+002	-1.993833e-001	-9.990629e+001	-2.129082e-001	-9.992382e+001	-2.155473e+001	1.426608e+002
870071000	-2.211276e+001	1.420161e+002	-2.031078e-001	-1.007986e+002	-2.182930e-001	-1.008006e+002	-2.153079e+001	1.421901e+002
877570750	-2.211093e+001	1.408958e+002	-2.091240e-001	-1.016782e+002	-2.241832e-001	-1.016584e+002	-2.149880e+001	1.416976e+002
885070500	-2.208542e+001	1.397230e+002	-2.164405e-001	-1.025409e+002	-2.282803e-001	-1.024992e+002	-2.148812e+001	1.408291e+002
892570250	-2.205743e+001	1.385565e+002	-2.225408e-001	-1.033846e+002	-2.304602e-001	-1.033316e+002	-2.144315e+001	1.401414e+002
900070000	-2.202062e+001	1.374778e+002	-2.268062e-001	-1.042168e+002	-2.295566e-001	-1.041719e+002	-2.146585e+001	1.395342e+002
907569750	-2.198527e+001	1.365164e+002	-2.279911e-001	-1.050427e+002	-2.274851e-001	-1.050266e+002	-2.147540e+001	1.390877e+002
915069500	-2.195477e+001	1.355736e+002	-2.261302e-001	-1.058763e+002	-2.242222e-001	-1.058987e+002	-2.156033e+001	1.382709e+002
922569250	-2.193387e+001	1.347536e+002	-2.222389e-001	-1.067239e+002	-2.221695e-001	-1.067816e+002	-2.163710e+001	1.372572e+002
930069000	-2.192795e+001	1.339503e+002	-2.179129e-001	-1.075950e+002	-2.225265e-001	-1.076874e+002	-2.171401e+001	1.364717e+002
937568750	-2.194204e+001	1.331175e+002	-2.149810e-001	-1.084894e+002	-2.256763e-001	-1.085938e+002	-2.185448e+001	1.356590e+002
945068500	-2.197601e+001	1.321925e+002	-2.146765e-001	-1.093965e+002	-2.312168e-001	-1.094981e+002	-2.198043e+001	1.346087e+002
952568250	-2.202060e+001	1.311143e+002	-2.177931e-001	-1.103099e+002	-2.385488e-001	-1.103843e+002	-2.210543e+001	1.332726e+002
960068000	-2.207054e+001	1.298421e+002	-2.240982e-001	-1.112134e+002	-2.460353e-001	-1.112450e+002	-2.216416e+001	1.315274e+002
967567750	-2.212035e+001	1.284084e+002	-2.320390e-001	-1.120922e+002	-2.531584e-001	-1.120827e+002	-2.216818e+001	1.304415e+002
975067500	-2.216809e+001	1.268356e+002	-2.399296e-001	-1.129511e+002	-2.574212e-001	-1.129025e+002	-2.216712e+001	1.291934e+002
982567250	-2.220962e+001	1.251870e+002	-2.461194e-001	-1.137872e+002	-2.583099e-001	-1.137162e+002	-2.213392e+001	1.278885e+002
990067000	-2.225457e+001	1.236733e+002	-2.497712e-001	-1.146161e+002	-2.555273e-001	-1.145421e+002	-2.210307e+001	1.268785e+002
997566750	-2.229119e+001	1.222570e+002	-2.503751e-001	-1.154373e+002	-2.507055e-001	-1.153862e+002	-2.213628e+001	1.255726e+002
1005066500	-2.232039e+001	1.210902e+002	-2.480912e-001	-1.162682e+002	-2.458312e-001	-1.162577e+002	-2.215617e+001	1.246822e+002
1012566250	-2.234045e+001	1.200874e+002	-2.439803e-001	-1.171173e+002	-2.427068e-001	-1.171569e+002	-2.219386e+001	1.235455e+002
1020066000	-2.236946e+001	1.192453e+002	-2.400697e-001	-1.179887e+002	-2.438208e-001	-1.180723e+002	-2.221737e+001	1.223009e+002
1027565750	-2.240199e+001	1.185758e+002	-2.386967e-001	-1.188771e+002	-2.491542e-001	-1.189890e+002	-2.232840e+001	1.215642e+002
1035065500	-2.243768e+001	1.179675e+002	-2.401455e-001	-1.197751e+002	-2.576695e-001	-1.198832e+002	-2.241983e+001	1.202584e+002
1042565250	-2.247810e+001	1.173913e+002	-2.441399e-001	-1.206641e+002	-2.683040e-001	-1.207435e+002	-2.237960e+001	1.192198e+002
1050065000	-2.251864e+001	1.166905e+002	-2.502955e-001	-1.215413e+002	-2.773722e-001	-1.215718e+002	-2.239923e+001	1.180111e+002
1057564750	-2.257659e+001	1.158291e+002	-2.561895e-001	-1.224047e+002	-2.828613e-001	-1.223796e+002	-2.240237e+001	1.173406e+002
1065064500	-2.264589e+001	1.148370e+002	-2.608922e-001	-1.232562e+002	-2.824060e-001	-1.231782e+002	-2.241112e+001	1.163541e+002
1072564250	-2.272719e+001	1.137982e+002	-2.633144e-001	-1.240946e+002	-2.777176e-001	-1.239979e+002	-2.239624e+001	1.159866e+002
1080064000	-2.280955e+001	1.126400e+002	-2.634701e-001	-1.249327e+002	-2.701860e-001	-1.248496e+002	-2.252438e+001	1.151209e+002
1087563750	-2.289036e+001	1.114689e+002	-2.611998e-001	-1.257813e+002	-2.636835e-001	-1.257398e+002	-2.260201e+001	1.144100e+002
1095063500	-2.296033e+001	1.103265e+002	-2.582444e-001	-1.266427e+002	-2.611898e-001	-1.266588e+002	-2.269702e+001	1.134534e+002
1102563250	-2.301603e+001	1.092262e+002	-2.561669e-001	-1.275247e+002	-2.639664e-001	-1.275883e+002	-2.282307e+001	1.124088e+002
1110063000	-2.305700e+001	1.081605e+002	-2.560808e-001	-1.284152e+002	-2.716321e-001	-1.285013e+002	-2.291844e+001	1.111927e+002
1117562750	-2.308119e+001	1.071137e+002	-2.586507e-001	-1.293140e+002	-2.824042e-001	-1.293929e+002	-2.299472e+001	1.099621e+002
1125062500	-2.309787e+001	1.061273e+002	-2.642032e-001	-1.302077e+002	-2.937814e-001	-1.302470e+002	-2.304256e+001	1.089101e+002
1132562250	-2.311134e+001	1.050381e+002	-2.717008e-001	-1.310904e+002	-3.026965e-001	-1.310734e+002	-2.306843e+001	1.078730e+002
1140062000	-2.313937e+001	1.038739e+002	-2.797487e-001	-1.319547e+002	-3.076143e-001	-1.318825e+002	-2.311386e+001	1.072995e+002
