!Agilent Technologies,E5071C,MY46107260,A.09.30
!Date: Mon Jan 01 00:35:49 2001
!Data & Calibration Information:
!Freq	S11:SOLT2(ON)	S21:SOLT2(ON)	S12:SOLT2(ON)	S22:SOLT2(ON)
# Hz S dB R 50
100000	-5.136707e+001	-2.080181e+000	-2.227193e-002	-5.890875e-002	-5.647571e-002	-8.287659e-001	-1.657580e+001	6.744639e+001
7599750	-4.793681e+001	-4.793012e+001	-2.049741e-002	-2.572392e+000	-2.665722e-001	-2.586642e+000	-1.093308e+001	3.314882e+001
15099500	-4.337191e+001	-6.849487e+001	-3.019898e-002	-5.110391e+000	-3.020275e-001	-5.078883e+000	-1.018593e+001	6.509619e+001
22599250	-3.978873e+001	-8.018400e+001	-4.126769e-002	-7.626552e+000	-3.086337e-001	-7.606017e+000	-1.037530e+001	9.807576e+001
30099000	-3.697412e+001	-8.802947e+001	-5.235154e-002	-1.013160e+001	-2.444922e-001	-1.013812e+001	-1.289396e+001	1.331295e+002
37598750	-3.467881e+001	-9.353084e+001	-6.087584e-002	-1.264541e+001	-2.331114e-001	-1.267058e+001	-1.311303e+001	1.674391e+002
45098500	-3.273239e+001	-9.780445e+001	-6.859528e-002	-1.517195e+001	-2.546500e-001	-1.518735e+001	-1.160505e+001	-1.616871e+002
52598250	-3.106160e+001	-1.011497e+002	-7.468822e-002	-1.770591e+001	-2.734653e-001	-1.768557e+001	-1.032420e+001	-1.327620e+002
60098000	-2.959876e+001	-1.040345e+002	-7.889194e-002	-2.024194e+001	-2.823818e-001	-2.015785e+001	-9.780369e+000	-1.052717e+002
67597750	-2.829601e+001	-1.066863e+002	-8.185780e-002	-2.278067e+001	-2.887542e-001	-2.263570e+001	-9.852175e+000	-7.903311e+001
75097500	-2.711828e+001	-1.093743e+002	-8.509359e-002	-2.529644e+001	-2.565052e-001	-2.519251e+001	-1.186816e+001	-5.363930e+001
82597250	-2.605180e+001	-1.122066e+002	-8.986105e-002	-2.782908e+001	-2.414123e-001	-2.777490e+001	-1.408646e+001	-2.808302e+001
90097000	-2.506029e+001	-1.153194e+002	-9.552079e-002	-3.037896e+001	-2.430108e-001	-3.036313e+001	-1.605318e+001	2.904320e+000
97596750	-2.412544e+001	-1.186323e+002	-1.024960e-001	-3.293913e+001	-2.391223e-001	-3.294717e+001	-1.836023e+001	4.455307e+001
105096500	-2.322104e+001	-1.221833e+002	-1.111588e-001	-3.551903e+001	-2.451721e-001	-3.550880e+001	-1.809952e+001	9.643452e+001
112596250	-2.233395e+001	-1.258568e+002	-1.214001e-001	-3.812170e+001	-2.447425e-001	-3.807341e+001	-1.637386e+001	1.429309e+002
120096000	-2.145581e+001	-1.295428e+002	-1.331132e-001	-4.076227e+001	-2.435364e-001	-4.069465e+001	-1.458079e+001	1.777392e+002
127595750	-2.057488e+001	-1.331442e+002	-1.475730e-001	-4.343348e+001	-2.621123e-001	-4.338831e+001	-1.273969e+001	-1.589556e+002
135095500	-1.970112e+001	-1.366665e+002	-1.640498e-001	-4.613353e+001	-3.174666e-001	-4.610911e+001	-1.033577e+001	-1.419251e+002
142595250	-1.883151e+001	-1.400507e+002	-1.834916e-001	-4.888786e+001	-4.122757e-001	-4.886474e+001	-7.715915e+000	-1.236451e+002
150095000	-1.798611e+001	-1.432625e+002	-2.024039e-001	-5.168024e+001	-4.949537e-001	-5.160706e+001	-6.147197e+000	-1.021302e+002
157594750	-1.714989e+001	-1.463385e+002	-2.169136e-001	-5.448391e+001	-4.889292e-001	-5.438489e+001	-7.211673e+000	-7.925323e+001
165094500	-1.634231e+001	-1.493373e+002	-2.327528e-001	-5.729318e+001	-5.046262e-001	-5.710970e+001	-8.772974e+000	-5.378802e+001
172594250	-1.556605e+001	-1.522782e+002	-2.523482e-001	-6.009011e+001	-4.858164e-001	-5.996217e+001	-1.313962e+001	-2.487547e+001
180094000	-1.482678e+001	-1.552275e+002	-2.788031e-001	-6.291396e+001	-4.788253e-001	-6.289739e+001	-1.942701e+001	3.148911e+001
187593750	-1.411664e+001	-1.582215e+002	-3.113147e-001	-6.577417e+001	-4.756758e-001	-6.590047e+001	-1.752020e+001	1.172811e+002
195093500	-1.343851e+001	-1.612368e+002	-3.488435e-001	-6.868497e+001	-5.070665e-001	-6.889037e+001	-1.230300e+001	1.449308e+002
202593250	-1.278778e+001	-1.643422e+002	-3.917287e-001	-7.164452e+001	-5.288490e-001	-7.194544e+001	-9.659358e+000	1.652182e+002
210093000	-1.216042e+001	-1.675126e+002	-4.399304e-001	-7.464859e+001	-5.770426e-001	-7.499592e+001	-7.787220e+000	1.785854e+002
217592750	-1.155323e+001	-1.708025e+002	-4.933908e-001	-7.770949e+001	-6.178102e-001	-7.807688e+001	-7.000922e+000	-1.682695e+002
225092500	-1.095956e+001	-1.741621e+002	-5.523846e-001	-8.081664e+001	-6.586881e-001	-8.113237e+001	-7.078210e+000	-1.565778e+002
232592250	-1.037729e+001	-1.776065e+002	-6.164371e-001	-8.397743e+001	-7.011589e-001	-8.419235e+001	-8.108968e+000	-1.476960e+002
240092000	-9.808701e+000	1.788631e+002	-6.876118e-001	-8.717819e+001	-7.673981e-001	-8.734065e+001	-1.004030e+001	-1.407291e+002
247591750	-9.251724e+000	1.752884e+002	-7.656197e-001	-9.041950e+001	-8.423206e-001	-9.063252e+001	-1.345278e+001	-1.441158e+002
255091500	-8.708725e+000	1.716680e+002	-8.524558e-001	-9.368134e+001	-9.184915e-001	-9.410646e+001	-1.654919e+001	-1.761455e+002
262591250	-8.179297e+000	1.680291e+002	-9.498260e-001	-9.696264e+001	-9.837365e-001	-9.765787e+001	-1.348704e+001	1.498510e+002
270091000	-7.664507e+000	1.643865e+002	-1.059991e+000	-1.002710e+002	-1.051669e+000	-1.011676e+002	-9.957076e+000	1.405187e+002
277590750	-7.166964e+000	1.607723e+002	-1.183400e+000	-1.035933e+002	-1.119215e+000	-1.045409e+002	-7.310071e+000	1.419597e+002
285090500	-6.690190e+000	1.571940e+002	-1.321234e+000	-1.069374e+002	-1.203071e+000	-1.077215e+002	-5.767345e+000	1.466595e+002
292590250	-6.235273e+000	1.536487e+002	-1.471826e+000	-1.103097e+002	-1.315651e+000	-1.107796e+002	-5.114871e+000	1.515684e+002
300090000	-5.804576e+000	1.501369e+002	-1.635101e+000	-1.136995e+002	-1.465566e+000	-1.138111e+002	-4.937935e+000	1.546398e+002
307589750	-5.398647e+000	1.466426e+002	-1.810462e+000	-1.171008e+002	-1.637105e+000	-1.169411e+002	-5.232390e+000	1.557340e+002
315089500	-5.015880e+000	1.431608e+002	-1.998466e+000	-1.205193e+002	-1.833088e+000	-1.202391e+002	-5.856058e+000	1.541616e+002
322589250	-4.659411e+000	1.396616e+002	-2.198273e+000	-1.239335e+002	-2.037911e+000	-1.237445e+002	-6.617493e+000	1.474145e+002
330089000	-4.325548e+000	1.361230e+002	-2.409390e+000	-1.273645e+002	-2.255096e+000	-1.273787e+002	-6.920325e+000	1.360142e+002
337588750	-4.013494e+000	1.325413e+002	-2.634725e+000	-1.307868e+002	-2.502182e+000	-1.310029e+002	-6.700387e+000	1.229880e+002
345088500	-3.718938e+000	1.289059e+002	-2.875702e+000	-1.342119e+002	-2.809078e+000	-1.345648e+002	-6.055291e+000	1.052523e+002
352588250	-3.440445e+000	1.252361e+002	-3.126916e+000	-1.376338e+002	-3.117069e+000	-1.381268e+002	-3.220465e+000	9.110333e+001
360088000	-3.176982e+000	1.215644e+002	-3.385768e+000	-1.409645e+002	-3.320239e+000	-1.412940e+002	-8.364431e-001	9.494338e+001
367587750	-2.927780e+000	1.179344e+002	-3.659480e+000	-1.442216e+002	-3.511712e+000	-1.440661e+002	7.430488e-001	1.033391e+002
375087500	-2.695159e+000	1.143823e+002	-3.952326e+000	-1.474019e+002	-3.760356e+000	-1.463434e+002	1.909793e+000	1.128420e+002
382587250	-2.477762e+000	1.109141e+002	-4.271567e+000	-1.505076e+002	-4.099839e+000	-1.485742e+002	1.969082e+000	1.255202e+002
390087000	-2.274512e+000	1.075548e+002	-4.619251e+000	-1.536848e+002	-4.433145e+000	-1.524003e+002	-9.187380e-001	1.311994e+002
397586750	-2.087113e+000	1.043070e+002	-4.973730e+000	-1.568287e+002	-4.805920e+000	-1.559965e+002	-3.383597e+000	1.265669e+002
405086500	-1.915239e+000	1.011533e+002	-5.333985e+000	-1.599163e+002	-5.187954e+000	-1.594132e+002	-5.083062e+000	1.113107e+002
412586250	-1.760034e+000	9.807132e+001	-5.697299e+000	-1.629357e+002	-5.561136e+000	-1.626182e+002	-4.705996e+000	9.158039e+001
420086000	-1.619904e+000	9.504633e+001	-6.062397e+000	-1.658684e+002	-5.922454e+000	-1.655856e+002	-2.852199e+000	8.093469e+001
427585750	-1.491778e+000	9.206259e+001	-6.433097e+000	-1.687201e+002	-6.300620e+000	-1.683690e+002	-1.342695e+000	7.694935e+001
435085500	-1.372430e+000	8.911853e+001	-6.808647e+000	-1.714927e+002	-6.669905e+000	-1.710620e+002	-1.071028e-001	7.633435e+001
442585250	-1.262182e+000	8.625073e+001	-7.188418e+000	-1.741698e+002	-7.008674e+000	-1.736894e+002	6.448757e-001	7.993236e+001
450085000	-1.162665e+000	8.346138e+001	-7.577341e+000	-1.767585e+002	-7.338405e+000	-1.763413e+002	7.860981e-001	8.454871e+001
457584750	-1.073328e+000	8.074661e+001	-7.979755e+000	-1.792768e+002	-7.691123e+000	-1.789502e+002	4.301236e-001	8.780669e+001
465084500	-9.927062e-001	7.811891e+001	-8.393952e+000	1.782497e+002	-8.068696e+000	1.784739e+002	-3.035188e-001	8.824480e+001
472584250	-9.188439e-001	7.556079e+001	-8.816389e+000	1.758263e+002	-8.473762e+000	1.760540e+002	-1.075799e+000	8.549630e+001
480084000	-8.511782e-001	7.307708e+001	-9.245116e+000	1.734498e+002	-8.913126e+000	1.737097e+002	-1.801287e+000	8.012070e+001
487583750	-7.934188e-001	7.064752e+001	-9.678317e+000	1.711121e+002	-9.368383e+000	1.714555e+002	-2.137786e+000	7.195601e+001
495083500	-7.437725e-001	6.824233e+001	-1.011393e+001	1.688159e+002	-9.843229e+000	1.693177e+002	-1.942538e+000	6.361945e+001
502583250	-6.982766e-001	6.584361e+001	-1.054928e+001	1.665662e+002	-1.033181e+001	1.672672e+002	-1.367428e+000	5.699749e+001
510083000	-6.537627e-001	6.345842e+001	-1.098422e+001	1.643555e+002	-1.080554e+001	1.651488e+002	-4.648275e-001	5.407660e+001
517582750	-6.106922e-001	6.110470e+001	-1.142128e+001	1.621947e+002	-1.126863e+001	1.629492e+002	2.783199e-001	5.436266e+001
525082500	-5.708847e-001	5.880333e+001	-1.186451e+001	1.601006e+002	-1.172269e+001	1.606590e+002	6.799485e-001	5.588339e+001
532582250	-5.334196e-001	5.657223e+001	-1.231252e+001	1.580778e+002	-1.215642e+001	1.583829e+002	7.504157e-001	5.784746e+001
540082000	-4.995954e-001	5.443738e+001	-1.276962e+001	1.561261e+002	-1.257620e+001	1.561736e+002	5.384677e-001	5.934562e+001
547581750	-4.686191e-001	5.239813e+001	-1.323441e+001	1.542433e+002	-1.299031e+001	1.541178e+002	6.425835e-002	5.958481e+001
555081500	-4.390828e-001	5.046069e+001	-1.370644e+001	1.524203e+002	-1.341167e+001	1.522430e+002	-5.175175e-001	5.766083e+001
562581250	-4.132628e-001	4.861735e+001	-1.418247e+001	1.506555e+002	-1.385794e+001	1.505849e+002	-1.115670e+000	5.422863e+001
570081000	-3.943237e-001	4.683559e+001	-1.466487e+001	1.489229e+002	-1.433010e+001	1.491187e+002	-1.481140e+000	4.837980e+001
577580750	-3.790977e-001	4.508036e+001	-1.514774e+001	1.472073e+002	-1.482260e+001	1.477228e+002	-1.329547e+000	4.161146e+001
585080500	-3.650788e-001	4.332664e+001	-1.563064e+001	1.455263e+002	-1.534249e+001	1.463861e+002	-7.332798e-001	3.668972e+001
592580250	-3.504878e-001	4.156620e+001	-1.611341e+001	1.438684e+002	-1.589232e+001	1.449876e+002	-6.610164e-002	3.437229e+001
600080000	-3.371783e-001	3.979763e+001	-1.659477e+001	1.422269e+002	-1.646519e+001	1.434450e+002	5.175822e-001	3.443121e+001
607579750	-3.250361e-001	3.802758e+001	-1.707701e+001	1.406097e+002	-1.703507e+001	1.416518e+002	8.948390e-001	3.611188e+001
615079500	-3.127266e-001	3.627050e+001	-1.756436e+001	1.390529e+002	-1.758421e+001	1.397497e+002	9.456960e-001	3.848096e+001
622579250	-3.018137e-001	3.455578e+001	-1.806148e+001	1.375568e+002	-1.810079e+001	1.377849e+002	6.809848e-001	4.053964e+001
630079000	-2.906015e-001	3.287590e+001	-1.857469e+001	1.360928e+002	-1.859011e+001	1.358545e+002	9.461906e-002	4.142548e+001
637578750	-2.796330e-001	3.125727e+001	-1.909694e+001	1.346841e+002	-1.905436e+001	1.341338e+002	-6.414129e-001	4.018515e+001
645078500	-2.715191e-001	2.969547e+001	-1.962882e+001	1.333019e+002	-1.952102e+001	1.326501e+002	-1.379317e+000	3.606656e+001
652578250	-2.664398e-001	2.816440e+001	-2.017396e+001	1.319298e+002	-1.999088e+001	1.314001e+002	-1.749495e+000	2.935176e+001
660078000	-2.629897e-001	2.664727e+001	-2.073020e+001	1.305616e+002	-2.048277e+001	1.303014e+002	-1.537579e+000	2.192778e+001
667577750	-2.586707e-001	2.512375e+001	-2.129537e+001	1.292207e+002	-2.102625e+001	1.293785e+002	-9.803249e-001	1.584895e+001
675077500	-2.532818e-001	2.359505e+001	-2.186667e+001	1.278527e+002	-2.161703e+001	1.284791e+002	-5.845416e-002	1.271587e+001
682577250	-2.479798e-001	2.206244e+001	-2.243670e+001	1.264874e+002	-2.224208e+001	1.274958e+002	7.913793e-001	1.425360e+001
690077000	-2.418746e-001	2.053739e+001	-2.301223e+001	1.251428e+002	-2.291710e+001	1.263245e+002	1.204332e+000	1.793041e+001
697576750	-2.351262e-001	1.904809e+001	-2.359788e+001	1.238526e+002	-2.361385e+001	1.249048e+002	1.190960e+000	2.160487e+001
705076500	-2.283890e-001	1.760383e+001	-2.420260e+001	1.227072e+002	-2.429669e+001	1.232737e+002	8.305515e-001	2.423442e+001
712576250	-2.207506e-001	1.621698e+001	-2.483762e+001	1.215877e+002	-2.494379e+001	1.214999e+002	2.024514e-001	2.520839e+001
720076000	-2.134153e-001	1.490110e+001	-2.550525e+001	1.205642e+002	-2.555719e+001	1.197392e+002	-5.542977e-001	2.379838e+001
727575750	-2.100515e-001	1.364123e+001	-2.619643e+001	1.195442e+002	-2.615416e+001	1.180837e+002	-1.185932e+000	1.959794e+001
735075500	-2.093672e-001	1.241336e+001	-2.689891e+001	1.184847e+002	-2.675421e+001	1.166865e+002	-1.416609e+000	1.361783e+001
742575250	-2.100406e-001	1.118872e+001	-2.763054e+001	1.174352e+002	-2.739546e+001	1.154370e+002	-1.201499e+000	7.586111e+000
750075000	-2.111624e-001	9.942308e+000	-2.839754e+001	1.163985e+002	-2.810291e+001	1.144997e+002	-6.365478e-001	3.483782e+000
757574750	-2.130164e-001	8.664593e+000	-2.919227e+001	1.153419e+002	-2.889289e+001	1.138633e+002	1.831782e-002	1.987586e+000
765074500	-2.143305e-001	7.351318e+000	-3.002385e+001	1.142663e+002	-2.979386e+001	1.135431e+002	5.562573e-001	2.554562e+000
772574250	-2.140762e-001	6.011112e+000	-3.089735e+001	1.132157e+002	-3.079284e+001	1.133086e+002	8.806408e-001	4.502163e+000
780074000	-2.125060e-001	4.671027e+000	-3.182027e+001	1.122726e+002	-3.187696e+001	1.129619e+002	8.920842e-001	7.313948e+000
787573750	-2.092102e-001	3.352628e+000	-3.282497e+001	1.113584e+002	-3.300617e+001	1.122925e+002	5.840067e-001	9.887346e+000
795073500	-2.048033e-001	2.079065e+000	-3.392269e+001	1.105986e+002	-3.415528e+001	1.113312e+002	-1.324808e-002	1.137519e+001
802573250	-1.998198e-001	8.677086e-001	-3.511752e+001	1.099374e+002	-3.533618e+001	1.101364e+002	-7.610611e-001	1.053538e+001
810073000	-1.967361e-001	-2.852083e-001	-3.642152e+001	1.093536e+002	-3.656982e+001	1.088471e+002	-1.460664e+000	6.663874e+000
817572750	-1.945535e-001	-1.396137e+000	-3.791927e+001	1.089157e+002	-3.794317e+001	1.076364e+002	-1.819405e+000	3.175056e-001
825072500	-1.943057e-001	-2.493307e+000	-3.964468e+001	1.087095e+002	-3.952383e+001	1.067836e+002	-1.672510e+000	-6.549418e+000
832572250	-1.953267e-001	-3.601520e+000	-4.171148e+001	1.089548e+002	-4.147144e+001	1.066422e+002	-1.041073e+000	-1.168067e+001
840072000	-1.977151e-001	-4.744494e+000	-4.426544e+001	1.097534e+002	-4.394126e+001	1.077397e+002	-2.227652e-001	-1.357963e+001
847571750	-1.996976e-001	-5.929860e+000	-4.769732e+001	1.123921e+002	-4.734764e+001	1.110528e+002	4.569034e-001	-1.237587e+001
855071500	-2.011007e-001	-7.153652e+000	-5.288354e+001	1.208715e+002	-5.265029e+001	1.203723e+002	8.238518e-001	-9.584386e+000
862571250	-2.005469e-001	-8.394789e+000	-6.137093e+001	1.711449e+002	-6.142876e+001	1.726989e+002	8.540669e-001	-6.472442e+000
870071000	-1.983134e-001	-9.624838e+000	-5.523196e+001	-1.099832e+002	-5.516669e+001	-1.070965e+002	5.689529e-001	-3.971680e+000
877570750	-1.946561e-001	-1.081378e+001	-4.947226e+001	-9.695177e+001	-4.951083e+001	-9.507304e+001	4.896464e-002	-2.960098e+000
885070500	-1.901040e-001	-1.194288e+001	-4.607548e+001	-9.326996e+001	-4.618127e+001	-9.182171e+001	-5.696484e-001	-4.027237e+000
892570250	-1.856323e-001	-1.300486e+001	-4.369813e+001	-9.203928e+001	-4.384082e+001	-9.153310e+001	-1.139485e+000	-7.376688e+000
900070000	-1.821443e-001	-1.400207e+001	-4.190983e+001	-9.153803e+001	-4.201841e+001	-9.222345e+001	-1.410426e+000	-1.257892e+001
907569750	-1.812589e-001	-1.496063e+001	-4.046556e+001	-9.155668e+001	-4.049632e+001	-9.328790e+001	-1.276923e+000	-1.798362e+001
915069500	-1.827260e-001	-1.591594e+001	-3.927989e+001	-9.176788e+001	-3.921129e+001	-9.428870e+001	-8.111033e-001	-2.182482e+001
922569250	-1.853886e-001	-1.689414e+001	-3.827232e+001	-9.218908e+001	-3.809082e+001	-9.480171e+001	-2.023794e-001	-2.334924e+001
930069000	-1.889416e-001	-1.790834e+001	-3.740144e+001	-9.264786e+001	-3.714720e+001	-9.483450e+001	3.443248e-001	-2.275099e+001
937568750	-1.924513e-001	-1.897269e+001	-3.663616e+001	-9.327118e+001	-3.636328e+001	-9.437663e+001	6.687945e-001	-2.067713e+001
945068500	-1.943294e-001	-2.007147e+001	-3.593450e+001	-9.392432e+001	-3.574892e+001	-9.378639e+001	7.272383e-001	-1.796816e+001
952568250	-1.950023e-001	-2.117746e+001	-3.530750e+001	-9.463258e+001	-3.526326e+001	-9.317386e+001	4.947053e-001	-1.561221e+001
960068000	-1.939184e-001	-2.226827e+001	-3.472927e+001	-9.540513e+001	-3.486178e+001	-9.315468e+001	2.353916e-003	-1.431797e+001
967567750	-1.911379e-001	-2.332263e+001	-3.421760e+001	-9.615770e+001	-3.449539e+001	-9.384842e+001	-6.340873e-001	-1.493112e+001
975067500	-1.864812e-001	-2.432240e+001	-3.375122e+001	-9.686119e+001	-3.412808e+001	-9.510997e+001	-1.238581e+000	-1.785822e+001
982567250	-1.824352e-001	-2.526277e+001	-3.333632e+001	-9.755271e+001	-3.374125e+001	-9.688477e+001	-1.590239e+000	-2.282704e+001
990067000	-1.801735e-001	-2.616693e+001	-3.296286e+001	-9.818484e+001	-3.333627e+001	-9.888228e+001	-1.530107e+000	-2.838590e+001
997566750	-1.797714e-001	-2.706151e+001	-3.262522e+001	-9.886532e+001	-3.291637e+001	-1.008660e+002	-1.099614e+000	-3.294778e+001
1005066500	-1.802998e-001	-2.797134e+001	-3.231259e+001	-9.952437e+001	-3.248818e+001	-1.024462e+002	-4.631048e-001	-3.530893e+001
1012566250	-1.825490e-001	-2.890981e+001	-3.202151e+001	-1.001951e+002	-3.206548e+001	-1.033541e+002	1.653948e-001	-3.533190e+001
1020066000	-1.849008e-001	-2.989627e+001	-3.174059e+001	-1.009388e+002	-3.169581e+001	-1.035065e+002	6.508255e-001	-3.356881e+001
1027565750	-1.872650e-001	-3.090939e+001	-3.147451e+001	-1.016965e+002	-3.139073e+001	-1.029758e+002	9.256397e-001	-3.079950e+001
1035065500	-1.889096e-001	-3.193265e+001	-3.122318e+001	-1.025076e+002	-3.121123e+001	-1.020378e+002	1.258422e+000	-2.770258e+001
1042565250	-1.893608e-001	-3.294485e+001	-3.097823e+001	-1.033774e+002	-3.107566e+001	-1.013038e+002	1.110742e+000	-2.309573e+001
1050065000	-1.865088e-001	-3.392213e+001	-3.073591e+001	-1.041784e+002	-3.096034e+001	-1.015243e+002	-1.800350e-002	-2.049497e+001
1057564750	-1.820107e-001	-3.483671e+001	-3.051778e+001	-1.049185e+002	-3.087063e+001	-1.024389e+002	-1.301520e+000	-2.241939e+001
1065064500	-1.786573e-001	-3.568907e+001	-3.032486e+001	-1.055901e+002	-3.076766e+001	-1.038852e+002	-2.172120e+000	-2.897574e+001
1072564250	-1.771472e-001	-3.650239e+001	-3.015055e+001	-1.062294e+002	-3.065849e+001	-1.057876e+002	-2.277241e+000	-3.809927e+001
1080064000	-1.763660e-001	-3.730907e+001	-2.999450e+001	-1.068501e+002	-3.052532e+001	-1.079888e+002	-1.472210e+000	-4.562197e+001
1087563750	-1.772554e-001	-3.812993e+001	-2.984699e+001	-1.074792e+002	-3.033658e+001	-1.100741e+002	-4.116384e-001	-4.840951e+001
1095063500	-1.809123e-001	-3.900011e+001	-2.970027e+001	-1.081508e+002	-3.007987e+001	-1.115608e+002	3.205461e-001	-4.727514e+001
1102563250	-1.843896e-001	-3.993469e+001	-2.955275e+001	-1.088751e+002	-2.977298e+001	-1.123207e+002	8.353271e-001	-4.379866e+001
1110063000	-1.885803e-001	-4.091725e+001	-2.940230e+001	-1.096944e+002	-2.947284e+001	-1.123081e+002	9.268044e-001	-3.929130e+001
1117562750	-1.930063e-001	-4.193498e+001	-2.925024e+001	-1.105491e+002	-2.924107e+001	-1.116764e+002	6.227792e-001	-3.543732e+001
1125062500	-1.950457e-001	-4.296724e+001	-2.910174e+001	-1.113718e+002	-2.909132e+001	-1.109579e+002	-9.144257e-002	-3.327668e+001
1132562250	-1.931255e-001	-4.397695e+001	-2.896729e+001	-1.121774e+002	-2.904020e+001	-1.104349e+002	-9.713073e-001	-3.424189e+001
1140062000	-1.882660e-001	-4.492028e+001	-2.885249e+001	-1.129439e+002	-2.906896e+001	-1.104582e+002	-1.713931e+000	-3.811894e+001
1147561750	-1.840551e-001	-4.579686e+001	-2.875069e+001	-1.136247e+002	-2.914445e+001	-1.110519e+002	-2.056040e+000	-4.387347e+001
