!Agilent Technologies,E5071C,MY46107260,A.09.30
!Date: Mon Jan 01 00:34:51 2001
!Data & Calibration Information:
!Freq	S11:SOLT2(ON)	S21:SOLT2(ON)	S12:SOLT2(ON)	S22:SOLT2(ON)
# Hz S dB R 50
100000	-5.069913e+001	1.079012e-002	-4.324508e-002	-1.006456e-001	-4.312116e-002	-8.391646e-002	-3.032860e+001	1.161804e+001
3849750	-3.939235e+001	-5.686337e+001	-1.000200e-001	-1.655084e+000	-1.014014e-001	-1.636515e+000	-2.115884e+001	-4.092832e+001
7599500	-4.726217e+001	-4.714010e+001	-4.908513e-002	-2.585502e+000	-4.902551e-002	-2.582552e+000	-3.037829e+001	2.942308e+001
11349250	-4.414081e+001	-5.385443e+001	-5.024636e-002	-3.873608e+000	-5.115042e-002	-3.866881e+000	-2.944306e+001	3.424379e+001
15099000	-4.301317e+001	-6.876128e+001	-5.323712e-002	-5.114090e+000	-5.552055e-002	-5.100690e+000	-3.136514e+001	6.481566e+001
18848750	-4.133509e+001	-7.588487e+001	-5.751251e-002	-6.376100e+000	-5.971582e-002	-6.371744e+000	-3.212210e+001	8.205730e+001
22598500	-3.961691e+001	-8.083038e+001	-5.970325e-002	-7.633500e+000	-6.542662e-002	-7.618820e+000	-3.080952e+001	1.102057e+002
26348250	-3.841756e+001	-8.605819e+001	-6.109135e-002	-8.876416e+000	-7.604067e-002	-8.842055e+000	-2.678419e+001	1.331470e+002
30098000	-3.691169e+001	-8.854436e+001	-6.623909e-002	-1.013993e+001	-7.951157e-002	-1.012927e+001	-2.752998e+001	1.521061e+002
33847750	-3.594342e+001	-9.244190e+001	-7.248086e-002	-1.141215e+001	-8.917788e-002	-1.142507e+001	-2.758642e+001	1.696954e+002
37597500	-3.467394e+001	-9.378211e+001	-7.238442e-002	-1.264902e+001	-8.389803e-002	-1.264762e+001	-2.537248e+001	-1.701058e+002
41347250	-3.371404e+001	-9.662188e+001	-7.428045e-002	-1.390800e+001	-9.526581e-002	-1.390242e+001	-2.241231e+001	-1.608686e+002
45097000	-3.275773e+001	-9.779840e+001	-7.913702e-002	-1.516769e+001	-1.134723e-001	-1.516115e+001	-2.018288e+001	-1.503093e+002
48846750	-3.195977e+001	-9.940245e+001	-8.575399e-002	-1.643349e+001	-1.143589e-001	-1.642008e+001	-2.017132e+001	-1.363032e+002
52596500	-3.109757e+001	-1.009322e+002	-8.446341e-002	-1.768554e+001	-1.036198e-001	-1.766495e+001	-2.021891e+001	-1.234534e+002
56346250	-3.029122e+001	-1.027672e+002	-8.587529e-002	-1.894991e+001	-9.564467e-002	-1.892371e+001	-2.056678e+001	-1.126926e+002
60096000	-2.962504e+001	-1.036750e+002	-8.911746e-002	-2.020474e+001	-9.869772e-002	-2.017080e+001	-2.045558e+001	-1.034133e+002
63845750	-2.890228e+001	-1.051246e+002	-9.148989e-002	-2.148063e+001	-1.031369e-001	-2.143171e+001	-1.976758e+001	-9.538056e+001
67595500	-2.830858e+001	-1.063138e+002	-9.415134e-002	-2.274160e+001	-1.089236e-001	-2.269317e+001	-1.995585e+001	-8.714546e+001
71345250	-2.765748e+001	-1.075808e+002	-9.680979e-002	-2.401510e+001	-1.077145e-001	-2.396017e+001	-2.049431e+001	-8.121020e+001
75095000	-2.712146e+001	-1.091008e+002	-9.921014e-002	-2.527927e+001	-1.149308e-001	-2.522429e+001	-2.088711e+001	-7.318386e+001
78844750	-2.656943e+001	-1.103237e+002	-1.027012e-001	-2.655436e+001	-1.185044e-001	-2.649581e+001	-2.152907e+001	-6.652214e+001
82594500	-2.604182e+001	-1.120337e+002	-1.073071e-001	-2.782683e+001	-1.168903e-001	-2.777360e+001	-2.334867e+001	-6.497311e+001
86344250	-2.554397e+001	-1.134821e+002	-1.111747e-001	-2.910889e+001	-1.150309e-001	-2.905717e+001	-2.515154e+001	-6.679041e+001
90094000	-2.503428e+001	-1.152702e+002	-1.192978e-001	-3.038647e+001	-1.141120e-001	-3.033597e+001	-2.725696e+001	-7.633041e+001
93843750	-2.455507e+001	-1.168764e+002	-1.340206e-001	-3.166824e+001	-1.176657e-001	-3.161818e+001	-2.911093e+001	-8.760658e+001
97593500	-2.407413e+001	-1.187563e+002	-1.399362e-001	-3.295820e+001	-1.192801e-001	-3.290795e+001	-2.983228e+001	-1.083377e+002
101343250	-2.362374e+001	-1.206059e+002	-1.504750e-001	-3.424458e+001	-1.230571e-001	-3.420427e+001	-2.884023e+001	-1.311369e+002
105093000	-2.317431e+001	-1.224923e+002	-1.513402e-001	-3.555243e+001	-1.256940e-001	-3.549625e+001	-2.651945e+001	-1.420478e+002
108842750	-2.271970e+001	-1.243970e+002	-1.596417e-001	-3.684595e+001	-1.297759e-001	-3.678901e+001	-2.395816e+001	-1.472933e+002
112592500	-2.230413e+001	-1.262493e+002	-1.631220e-001	-3.816912e+001	-1.342171e-001	-3.810164e+001	-2.236773e+001	-1.476487e+002
116342250	-2.186381e+001	-1.281145e+002	-1.678391e-001	-3.949482e+001	-1.399979e-001	-3.942120e+001	-2.088024e+001	-1.479757e+002
120092000	-2.144790e+001	-1.299125e+002	-1.764933e-001	-4.081287e+001	-1.465288e-001	-4.074130e+001	-1.956434e+001	-1.449969e+002
123841750	-2.100895e+001	-1.317977e+002	-1.842705e-001	-4.214530e+001	-1.535353e-001	-4.208538e+001	-1.856461e+001	-1.422132e+002
127591500	-2.058834e+001	-1.333451e+002	-1.903410e-001	-4.347915e+001	-1.618726e-001	-4.342353e+001	-1.773749e+001	-1.387603e+002
131341250	-2.014319e+001	-1.348677e+002	-1.940001e-001	-4.479067e+001	-1.698459e-001	-4.479426e+001	-1.701845e+001	-1.352180e+002
135091000	-1.971477e+001	-1.366772e+002	-1.994303e-001	-4.617590e+001	-1.785852e-001	-4.613683e+001	-1.651457e+001	-1.325916e+002
138840750	-1.920417e+001	-1.384895e+002	-2.047310e-001	-4.754146e+001	-1.860930e-001	-4.750970e+001	-1.606338e+001	-1.292200e+002
142590500	-1.884014e+001	-1.399061e+002	-2.134397e-001	-4.889999e+001	-1.949924e-001	-4.888451e+001	-1.592596e+001	-1.271269e+002
146340250	-1.838273e+001	-1.411961e+002	-2.246676e-001	-5.025933e+001	-2.015284e-001	-5.027551e+001	-1.582319e+001	-1.243563e+002
150090000	-1.798401e+001	-1.430252e+002	-2.356186e-001	-5.164472e+001	-2.099905e-001	-5.165945e+001	-1.584466e+001	-1.234853e+002
153839750	-1.755724e+001	-1.445469e+002	-2.426551e-001	-5.304152e+001	-2.174464e-001	-5.305766e+001	-1.596452e+001	-1.216696e+002
157589500	-1.713830e+001	-1.461101e+002	-2.544192e-001	-5.442536e+001	-2.278772e-001	-5.446602e+001	-1.615688e+001	-1.218913e+002
161339250	-1.673704e+001	-1.476540e+002	-2.655026e-001	-5.581479e+001	-2.360146e-001	-5.587980e+001	-1.661037e+001	-1.223545e+002
165089000	-1.632516e+001	-1.491970e+002	-2.753940e-001	-5.723062e+001	-2.459883e-001	-5.729309e+001	-1.688226e+001	-1.248915e+002
168838750	-1.593894e+001	-1.507771e+002	-2.858763e-001	-5.862310e+001	-2.540508e-001	-5.873965e+001	-1.730731e+001	-1.280900e+002
172588500	-1.555130e+001	-1.522480e+002	-2.976569e-001	-6.006461e+001	-2.649437e-001	-6.016493e+001	-1.741619e+001	-1.333744e+002
176338250	-1.518302e+001	-1.538009e+002	-3.103188e-001	-6.146350e+001	-2.741237e-001	-6.159565e+001	-1.762994e+001	-1.412944e+002
180088000	-1.481836e+001	-1.553140e+002	-3.260232e-001	-6.292327e+001	-2.879748e-001	-6.306626e+001	-1.726979e+001	-1.465081e+002
183837750	-1.446686e+001	-1.568492e+002	-3.422968e-001	-6.435955e+001	-3.032973e-001	-6.448102e+001	-1.665444e+001	-1.553494e+002
187587500	-1.411505e+001	-1.583859e+002	-3.588840e-001	-6.581529e+001	-3.168082e-001	-6.601403e+001	-1.607633e+001	-1.582897e+002
191337250	-1.377561e+001	-1.599133e+002	-3.769898e-001	-6.727843e+001	-3.334933e-001	-6.747857e+001	-1.526311e+001	-1.628761e+002
195087000	-1.344472e+001	-1.614457e+002	-3.941504e-001	-6.874936e+001	-3.494555e-001	-6.898020e+001	-1.447129e+001	-1.651437e+002
198836750	-1.311035e+001	-1.630301e+002	-4.135471e-001	-7.023023e+001	-3.700168e-001	-7.047404e+001	-1.368606e+001	-1.673964e+002
202586500	-1.279977e+001	-1.645399e+002	-4.328771e-001	-7.172024e+001	-3.903218e-001	-7.197935e+001	-1.300606e+001	-1.678084e+002
206336250	-1.248018e+001	-1.661587e+002	-4.535057e-001	-7.321553e+001	-4.145897e-001	-7.348506e+001	-1.252988e+001	-1.721534e+002
210086000	-1.217341e+001	-1.676713e+002	-4.767696e-001	-7.473068e+001	-4.368997e-001	-7.499682e+001	-1.187085e+001	-1.685260e+002
213835750	-1.185605e+001	-1.693281e+002	-5.019302e-001	-7.626537e+001	-4.616899e-001	-7.651606e+001	-1.143286e+001	-1.690180e+002
217585500	-1.156251e+001	-1.709017e+002	-5.282411e-001	-7.778540e+001	-4.861408e-001	-7.805229e+001	-1.111473e+001	-1.681971e+002
221335250	-1.125217e+001	-1.725324e+002	-5.557752e-001	-7.932175e+001	-5.113339e-001	-7.959422e+001	-1.087714e+001	-1.681558e+002
225085000	-1.096362e+001	-1.742176e+002	-5.854200e-001	-8.088322e+001	-5.376325e-001	-8.114737e+001	-1.068456e+001	-1.681921e+002
228834750	-1.066257e+001	-1.758494e+002	-6.167387e-001	-8.245643e+001	-5.628539e-001	-8.271163e+001	-1.057557e+001	-1.686026e+002
232584500	-1.037466e+001	-1.776469e+002	-6.500258e-001	-8.402564e+001	-5.901943e-001	-8.429448e+001	-1.050975e+001	-1.692244e+002
236334250	-1.008605e+001	-1.793503e+002	-6.847069e-001	-8.561959e+001	-6.158221e-001	-8.589869e+001	-1.052667e+001	-1.703364e+002
240084000	-9.800834e+000	1.788208e+002	-7.219155e-001	-8.720473e+001	-6.453412e-001	-8.752519e+001	-1.048765e+001	-1.721615e+002
243833750	-9.521710e+000	1.770472e+002	-7.605190e-001	-8.881246e+001	-6.714183e-001	-8.916566e+001	-1.052325e+001	-1.749472e+002
247583500	-9.241944e+000	1.752213e+002	-8.018359e-001	-9.042848e+001	-7.023855e-001	-9.085597e+001	-1.043170e+001	-1.772770e+002
251333250	-8.971165e+000	1.734149e+002	-8.445803e-001	-9.206009e+001	-7.289124e-001	-9.248969e+001	-1.039446e+001	1.786503e+002
255083000	-8.699266e+000	1.715732e+002	-8.907365e-001	-9.369034e+001	-7.650996e-001	-9.427908e+001	-1.018076e+001	1.761620e+002
258832750	-8.434861e+000	1.697454e+002	-9.385884e-001	-9.533391e+001	-8.009078e-001	-9.595245e+001	-9.957748e+000	1.718578e+002
262582500	-8.172077e+000	1.679170e+002	-9.906420e-001	-9.698426e+001	-8.388155e-001	-9.772571e+001	-9.667188e+000	1.690882e+002
266332250	-7.913586e+000	1.660808e+002	-1.044022e+000	-9.864093e+001	-8.813835e-001	-9.944289e+001	-9.273254e+000	1.651946e+002
270082000	-7.660598e+000	1.642624e+002	-1.102866e+000	-1.003090e+002	-9.235856e-001	-1.011692e+002	-8.888049e+000	1.625495e+002
273831750	-7.408626e+000	1.624556e+002	-1.160748e+000	-1.019707e+002	-9.745044e-001	-1.028266e+002	-8.365792e+000	1.597482e+002
277581500	-7.166603e+000	1.606545e+002	-1.223590e+000	-1.036606e+002	-1.024337e+000	-1.045056e+002	-7.964408e+000	1.577902e+002
281331250	-6.922642e+000	1.588215e+002	-1.288655e+000	-1.053391e+002	-1.083114e+000	-1.061159e+002	-7.481865e+000	1.559454e+002
285081000	-6.691036e+000	1.570922e+002	-1.357687e+000	-1.070368e+002	-1.138093e+000	-1.077373e+002	-7.164709e+000	1.550623e+002
288830750	-6.463797e+000	1.552692e+002	-1.429303e+000	-1.087106e+002	-1.204766e+000	-1.092886e+002	-6.844065e+000	1.538769e+002
292580500	-6.237419e+000	1.535617e+002	-1.509257e+000	-1.104245e+002	-1.269489e+000	-1.108840e+002	-6.587895e+000	1.528876e+002
296330250	-6.016361e+000	1.518045e+002	-1.588288e+000	-1.121210e+002	-1.342667e+000	-1.124869e+002	-6.230290e+000	1.471901e+002
300080000	-5.806074e+000	1.500654e+002	-1.670792e+000	-1.138264e+002	-1.417313e+000	-1.140077e+002	-6.214063e+000	1.504461e+002
303829750	-5.594073e+000	1.483489e+002	-1.752166e+000	-1.155347e+002	-1.511473e+000	-1.155523e+002	-6.021890e+000	1.488604e+002
307579500	-5.397943e+000	1.465716e+002	-1.838677e+000	-1.172349e+002	-1.577115e+000	-1.171946e+002	-5.983677e+000	1.472273e+002
311329250	-5.205888e+000	1.448864e+002	-1.926474e+000	-1.189351e+002	-1.689335e+000	-1.188649e+002	-5.833862e+000	1.449865e+002
315079000	-5.014375e+000	1.430766e+002	-2.017898e+000	-1.206598e+002	-1.754713e+000	-1.205052e+002	-5.784735e+000	1.430029e+002
318828750	-4.835027e+000	1.413518e+002	-2.113041e+000	-1.223833e+002	-1.852707e+000	-1.222400e+002	-5.683512e+000	1.404969e+002
322578500	-4.657443e+000	1.395624e+002	-2.211291e+000	-1.240725e+002	-1.946139e+000	-1.239732e+002	-5.517738e+000	1.376692e+002
326328250	-4.488770e+000	1.377994e+002	-2.313005e+000	-1.257825e+002	-2.051914e+000	-1.257795e+002	-5.344671e+000	1.348094e+002
330078000	-4.323767e+000	1.360088e+002	-2.417394e+000	-1.274901e+002	-2.157665e+000	-1.275501e+002	-5.138793e+000	1.321388e+002
333827750	-4.163259e+000	1.342242e+002	-2.527154e+000	-1.291801e+002	-2.270451e+000	-1.293492e+002	-4.828137e+000	1.293431e+002
337577500	-4.011621e+000	1.324165e+002	-2.640271e+000	-1.308924e+002	-2.384651e+000	-1.311345e+002	-4.605640e+000	1.268929e+002
341327250	-3.862109e+000	1.305884e+002	-2.754461e+000	-1.325971e+002	-2.504470e+000	-1.329072e+002	-4.265078e+000	1.243732e+002
345077000	-3.717790e+000	1.287729e+002	-2.873295e+000	-1.342848e+002	-2.622363e+000	-1.346532e+002	-3.972110e+000	1.226794e+002
348826750	-3.573048e+000	1.268877e+002	-2.994489e+000	-1.359916e+002	-2.741760e+000	-1.363515e+002	-3.611359e+000	1.205747e+002
352576500	-3.438398e+000	1.251012e+002	-3.125228e+000	-1.376478e+002	-2.861218e+000	-1.379976e+002	-3.380811e+000	1.195980e+002
356326250	-3.302075e+000	1.232421e+002	-3.255850e+000	-1.393196e+002	-2.980957e+000	-1.395947e+002	-3.091894e+000	1.183031e+002
360076000	-3.173544e+000	1.214348e+002	-3.393172e+000	-1.409890e+002	-3.096613e+000	-1.412277e+002	-2.893131e+000	1.171992e+002
363825750	-3.045573e+000	1.196049e+002	-3.530037e+000	-1.426397e+002	-3.214074e+000	-1.427358e+002	-2.681446e+000	1.162542e+002
367575500	-2.923818e+000	1.178158e+002	-3.675247e+000	-1.442983e+002	-3.330714e+000	-1.443202e+002	-2.544513e+000	1.152888e+002
371325250	-2.805191e+000	1.160294e+002	-3.820128e+000	-1.459380e+002	-3.438130e+000	-1.458066e+002	-2.405212e+000	1.143132e+002
375075000	-2.691234e+000	1.142769e+002	-3.975301e+000	-1.475696e+002	-3.573090e+000	-1.473761e+002	-2.340019e+000	1.133382e+002
378824750	-2.580549e+000	1.125475e+002	-4.129094e+000	-1.492052e+002	-3.659670e+000	-1.492812e+002	-2.272098e+000	1.124386e+002
382574500	-2.474488e+000	1.108259e+002	-4.290895e+000	-1.508031e+002	-3.845792e+000	-1.504564e+002	-2.256270e+000	1.109241e+002
386324250	-2.370419e+000	1.091577e+002	-4.453338e+000	-1.524156e+002	-3.997542e+000	-1.520409e+002	-2.122907e+000	1.096325e+002
390074000	-2.271916e+000	1.074766e+002	-4.620793e+000	-1.539816e+002	-4.163593e+000	-1.535610e+002	-2.231866e+000	1.077610e+002
393823750	-2.178927e+000	1.058605e+002	-4.790253e+000	-1.555538e+002	-4.339655e+000	-1.551440e+002	-2.062683e+000	1.060321e+002
397573500	-2.085461e+000	1.042349e+002	-4.964584e+000	-1.570955e+002	-4.524227e+000	-1.566773e+002	-2.199064e+000	1.037857e+002
401323250	-2.000934e+000	1.026462e+002	-5.139529e+000	-1.586304e+002	-4.719838e+000	-1.582358e+002	-2.007737e+000	1.014624e+002
405073000	-1.914325e+000	1.010795e+002	-5.318649e+000	-1.601414e+002	-4.916805e+000	-1.597055e+002	-2.019721e+000	9.913559e+001
408822750	-1.835163e+000	9.952475e+001	-5.498195e+000	-1.616385e+002	-5.127099e+000	-1.611973e+002	-1.820460e+000	9.704876e+001
412572500	-1.759778e+000	9.799292e+001	-5.680820e+000	-1.631197e+002	-5.332680e+000	-1.626321e+002	-1.718842e+000	9.483229e+001
416322250	-1.688491e+000	9.645525e+001	-5.864283e+000	-1.645857e+002	-5.546300e+000	-1.640972e+002	-1.509014e+000	9.290603e+001
420072000	-1.620509e+000	9.495540e+001	-6.049687e+000	-1.660168e+002	-5.755298e+000	-1.654885e+002	-1.341175e+000	9.139749e+001
423821750	-1.553931e+000	9.343074e+001	-6.235490e+000	-1.674391e+002	-5.960377e+000	-1.669196e+002	-1.121531e+000	9.001483e+001
427571500	-1.492360e+000	9.195266e+001	-6.424061e+000	-1.688463e+002	-6.162548e+000	-1.682862e+002	-9.751764e-001	8.895884e+001
431321250	-1.430482e+000	9.047518e+001	-6.613898e+000	-1.702260e+002	-6.354575e+000	-1.696608e+002	-8.065168e-001	8.820594e+001
435071000	-1.372256e+000	8.899178e+001	-6.806848e+000	-1.716126e+002	-6.545366e+000	-1.710554e+002	-6.936731e-001	8.726085e+001
438820750	-1.313901e+000	8.752928e+001	-6.999254e+000	-1.729822e+002	-6.725528e+000	-1.724216e+002	-5.559487e-001	8.663616e+001
442570500	-1.261577e+000	8.611171e+001	-7.195333e+000	-1.743177e+002	-6.909846e+000	-1.738043e+002	-5.535528e-001	8.595612e+001
446320250	-1.208409e+000	8.469492e+001	-7.391042e+000	-1.756498e+002	-7.067556e+000	-1.751640e+002	-5.097232e-001	8.539951e+001
450070000	-1.161133e+000	8.331586e+001	-7.590570e+000	-1.769601e+002	-7.257142e+000	-1.765654e+002	-5.264171e-001	8.466517e+001
453819750	-1.114660e+000	8.194466e+001	-7.791243e+000	-1.782643e+002	-7.417549e+000	-1.780535e+002	-5.513317e-001	8.401567e+001
457569500	-1.071038e+000	8.060389e+001	-7.995083e+000	-1.795400e+002	-7.608905e+000	-1.792762e+002	-6.224674e-001	8.295720e+001
461319250	-1.028074e+000	7.927416e+001	-8.200049e+000	1.791894e+002	-7.789089e+000	1.793670e+002	-6.757399e-001	8.205069e+001
465069000	-9.900265e-001	7.798355e+001	-8.407800e+000	1.779474e+002	-7.980500e+000	1.780913e+002	-7.808442e-001	8.049012e+001
468818750	-9.389131e-001	7.668494e+001	-8.616944e+000	1.767123e+002	-8.177542e+000	1.768459e+002	-8.178963e-001	7.911521e+001
472568500	-9.157922e-001	7.543759e+001	-8.827954e+000	1.755022e+002	-8.380023e+000	1.756429e+002	-9.372996e-001	7.722413e+001
476318250	-8.740065e-001	7.415400e+001	-9.039284e+000	1.742977e+002	-8.594989e+000	1.744780e+002	-9.140503e-001	7.583545e+001
480068000	-8.484685e-001	7.296380e+001	-9.253006e+000	1.731183e+002	-8.809726e+000	1.733467e+002	-1.001170e+000	7.325366e+001
483817750	-8.175697e-001	7.173884e+001	-9.465842e+000	1.719399e+002	-9.038226e+000	1.722526e+002	-8.857676e-001	7.171939e+001
487567500	-7.909220e-001	7.053958e+001	-9.681937e+000	1.707904e+002	-9.263379e+000	1.711785e+002	-9.134466e-001	6.906524e+001
491317250	-7.647864e-001	6.933213e+001	-9.896891e+000	1.696463e+002	-9.503051e+000	1.701381e+002	-7.411507e-001	6.755364e+001
495067000	-7.416677e-001	6.813526e+001	-1.011375e+001	1.685236e+002	-9.740256e+000	1.691022e+002	-6.930149e-001	6.532676e+001
498816750	-7.185325e-001	6.692513e+001	-1.033061e+001	1.674017e+002	-9.990682e+000	1.680695e+002	-5.477804e-001	6.386847e+001
502566500	-6.963236e-001	6.573119e+001	-1.054727e+001	1.662947e+002	-1.023778e+001	1.670483e+002	-4.445634e-001	6.210444e+001
506316250	-6.726965e-001	6.452023e+001	-1.076379e+001	1.651910e+002	-1.048519e+001	1.659698e+002	-2.557304e-001	6.104608e+001
510066000	-6.520638e-001	6.333392e+001	-1.098229e+001	1.641110e+002	-1.073035e+001	1.649226e+002	-1.207331e-001	6.017209e+001
513815750	-6.281444e-001	6.213437e+001	-1.120152e+001	1.630290e+002	-1.097090e+001	1.638004e+002	3.573379e-002	5.971595e+001
517565500	-6.084163e-001	6.096212e+001	-1.142306e+001	1.619631e+002	-1.121352e+001	1.627191e+002	1.214714e-001	5.919971e+001
521315250	-5.863639e-001	5.979408e+001	-1.164545e+001	1.609100e+002	-1.144474e+001	1.615407e+002	2.128825e-001	5.907033e+001
525065000	-5.679350e-001	5.864359e+001	-1.187033e+001	1.598776e+002	-1.167939e+001	1.604106e+002	2.367465e-001	5.874942e+001
528814750	-5.474825e-001	5.751075e+001	-1.209555e+001	1.588559e+002	-1.189680e+001	1.592677e+002	2.492295e-001	5.874496e+001
532564500	-5.298778e-001	5.639802e+001	-1.232287e+001	1.578450e+002	-1.212050e+001	1.581143e+002	1.939114e-001	5.836677e+001
536314250	-5.112531e-001	5.531202e+001	-1.255205e+001	1.568517e+002	-1.232609e+001	1.569901e+002	1.335781e-001	5.818900e+001
540064000	-4.956324e-001	5.425594e+001	-1.278290e+001	1.558764e+002	-1.254071e+001	1.558729e+002	2.441663e-002	5.742611e+001
543813750	-4.781782e-001	5.322040e+001	-1.301610e+001	1.549176e+002	-1.274254e+001	1.547797e+002	-8.048360e-002	5.687977e+001
547563500	-4.642835e-001	5.221533e+001	-1.325024e+001	1.539798e+002	-1.295100e+001	1.537826e+002	-2.023993e-001	5.569931e+001
551313250	-4.464709e-001	5.123325e+001	-1.348617e+001	1.530529e+002	-1.315465e+001	1.527842e+002	-3.038556e-001	5.467745e+001
555063000	-4.344662e-001	5.028236e+001	-1.372264e+001	1.521503e+002	-1.336490e+001	1.518800e+002	-4.149204e-001	5.301232e+001
558812750	-4.179816e-001	4.935247e+001	-1.395943e+001	1.512468e+002	-1.357609e+001	1.510064e+002	-4.556086e-001	5.189111e+001
562562500	-4.087774e-001	4.844750e+001	-1.419772e+001	1.503712e+002	-1.379197e+001	1.502016e+002	-5.327361e-001	4.967283e+001
566312250	-3.953855e-001	4.754801e+001	-1.443523e+001	1.495028e+002	-1.401978e+001	1.494680e+002	-4.977498e-001	4.895045e+001
570062000	-3.898825e-001	4.667313e+001	-1.467528e+001	1.486459e+002	-1.424884e+001	1.487549e+002	-4.941560e-001	4.616577e+001
573811750	-3.792439e-001	4.579376e+001	-1.491320e+001	1.477870e+002	-1.449327e+001	1.480830e+002	-3.513938e-001	4.536471e+001
