! Thu 10/27/2005 10:31:32 AM
! MODELITIHCS, INC.
# Hz S MA R 50
40000000.000000000	0.999650419	-6.797698021	0.115355909	85.668739319	0.114536583	85.935089111	1.002431989	-6.990739346
64900000.000000000	0.987842023	-10.648996353	0.178252637	79.876968384	0.178241208	79.875076294	0.988175929	-10.914101601
89800000.000000000	0.973386109	-14.416354179	0.238964394	75.541961670	0.238556802	75.800933838	0.973426819	-14.607107162
114700000.000000000	0.956227124	-18.166477203	0.299871296	71.669914246	0.299983114	71.856567383	0.955577254	-18.367134094
139600000.000000000	0.936868131	-22.053953171	0.359712690	67.997215271	0.359592915	68.061157227	0.935666919	-22.228538513
164500000.000000000	0.913357496	-25.555471420	0.414764255	64.422737122	0.413538754	64.541252136	0.913735032	-25.931053162
189400000.000000000	0.888381124	-29.078945160	0.465331614	60.919956207	0.465211302	61.103801727	0.889238298	-29.307138443
214300000.000000000	0.862501979	-32.168048859	0.510457993	57.575515747	0.509993196	57.813144684	0.862603962	-32.645534515
239200000.000000000	0.835547030	-35.252281189	0.553380489	54.403827667	0.552786648	54.754451752	0.835502923	-35.626152039
264100000.000000000	0.807427049	-38.314968109	0.593659878	51.461208344	0.593200028	51.695919037	0.806916237	-38.411220551
289000000.000000000	0.780028582	-40.973400116	0.628368080	48.922019958	0.628757238	48.998100281	0.780227900	-41.109714508
313900000.000000000	0.753573179	-43.540630341	0.660641849	46.376121521	0.660563409	46.441284180	0.753943145	-43.713008881
338800000.000000000	0.726747096	-45.965072632	0.689792931	43.922172546	0.689436793	44.027896881	0.727591038	-46.196899414
363700000.000000000	0.701318860	-48.229183197	0.715845048	41.619220734	0.716349721	41.740428925	0.701593876	-48.540992737
388600000.000000000	0.675048769	-50.354797363	0.739351809	39.348758698	0.739813864	39.479225159	0.675418556	-50.655261993
413500000.000000000	0.651069403	-52.445747375	0.760976315	37.335090637	0.761380851	37.421318054	0.651260972	-52.718009949
438400000.000000000	0.626697958	-54.428005219	0.781243384	35.382976532	0.781489313	35.475219727	0.627310753	-54.789516449
463300000.000000000	0.602525771	-56.268726349	0.799538910	33.404102325	0.799111307	33.587501526	0.602957010	-56.648376465
488200000.000000000	0.579607368	-57.963840485	0.815649867	31.608224869	0.814884782	31.787061691	0.580231428	-58.327175140
513100000.000000000	0.558247626	-59.616329193	0.830368519	29.912561417	0.829605937	30.124267578	0.559221983	-59.995941162
538000000.000000000	0.538882554	-61.252243042	0.843321323	28.215175629	0.842911065	28.610006332	0.539132655	-61.692733765
562899968.000000000	0.519720137	-62.683284760	0.855164647	26.930541992	0.854507327	27.102844238	0.519389927	-63.119228363
587800000.000000000	0.500998855	-64.134231567	0.865953386	25.506359100	0.865684450	25.675720215	0.500822484	-64.545265198
612700032.000000000	0.483393461	-65.520835876	0.877201319	24.149543762	0.876184046	24.333631516	0.483191550	-65.952812195
637600000.000000000	0.465607077	-66.692924500	0.885444283	22.896957397	0.885159194	22.997522354	0.466304630	-67.257339478
662499968.000000000	0.449161887	-67.864624023	0.893258810	21.625059128	0.893744290	21.750621796	0.450086504	-68.439712524
687400000.000000000	0.433346301	-69.039855957	0.901017606	20.409929276	0.901149392	20.554834366	0.434290588	-69.576393127
712300032.000000000	0.417774498	-70.193717957	0.908092737	19.250770569	0.908137202	19.357133865	0.418523848	-70.676353455
737200000.000000000	0.402881414	-71.314743042	0.914253414	18.153657913	0.914289415	18.234373093	0.403344691	-71.751731873
762099968.000000000	0.388677806	-72.599960327	0.920782149	17.090627670	0.920141280	17.044973373	0.389305770	-72.826454163
787000000.000000000	0.375502259	-73.570945740	0.926326990	16.107543945	0.925805867	16.221395493	0.376372159	-73.767974854
811900032.000000000	0.362717718	-74.373046875	0.930655718	15.124762535	0.930673420	15.253437996	0.363244146	-74.750946045
836800000.000000000	0.350664884	-75.257148743	0.935257375	14.176852226	0.935763717	14.300671577	0.351271808	-75.701644897
861699968.000000000	0.339199960	-76.081047058	0.939816952	13.291491508	0.939780712	13.402937889	0.339477032	-76.593696594
886600000.000000000	0.327557176	-76.991828918	0.943889141	12.422803879	0.944026947	12.512000084	0.327908695	-77.521469116
911500032.000000000	0.316391557	-77.889221191	0.947562277	11.551887512	0.947725415	11.663747787	0.316684663	-78.342254639
936400000.000000000	0.305141121	-78.691398621	0.951044440	10.728760719	0.950961351	10.803093910	0.305895478	-79.043884277
961299968.000000000	0.294271946	-79.457290649	0.953795433	9.896055222	0.954246998	9.993028641	0.295155287	-79.783370972
986200000.000000000	0.283824384	-80.155609131	0.956582308	9.051046371	0.957126498	9.193352699	0.284494460	-80.580650330
1011100032.000000000	0.274028182	-80.766021729	0.959146082	8.311738014	0.959332407	8.421813011	0.274616867	-81.166183472
1036000000.000000000	0.265148371	-81.342880249	0.961331010	7.591760159	0.961486995	7.688346863	0.265492827	-81.759422302
1060899968.000000000	0.256707013	-82.019157410	0.963424325	6.874989033	0.963516951	6.976862431	0.257143348	-82.428619385
1085799936.000000000	0.248782426	-82.622909546	0.965673268	6.223406315	0.965800822	6.322716236	0.249107838	-83.157287598
1110700032.000000000	0.240105912	-83.268997192	0.968033612	5.545560360	0.968096375	5.650382996	0.240674302	-83.891319275
1135600000.000000000	0.232136860	-83.870452881	0.970045924	4.858675003	0.970232964	4.977900028	0.232685700	-84.548629761
1160499968.000000000	0.224263921	-84.553161621	0.972000122	4.214025021	0.971960008	4.335590363	0.224910498	-85.233306885
1185400064.000000000	0.216135144	-85.220298767	0.973495245	3.589168787	0.973540664	3.695356131	0.216553420	-85.856704712
1210300032.000000000	0.208509982	-85.841522217	0.975025952	2.965733051	0.975405335	3.060233116	0.208762288	-86.372245789
1235200000.000000000	0.200716302	-86.474601746	0.977106929	2.335853100	0.976387560	2.442494869	0.201411501	-86.913627625
1260099968.000000000	0.193357453	-86.943946838	0.978184044	1.743711472	0.978074968	1.881138206	0.194324896	-87.489624023
1284999936.000000000	0.186527282	-87.478050232	0.979405403	1.127645254	0.980034053	1.282060742	0.187459350	-88.157089233
1309900032.000000000	0.179983228	-88.021903992	0.980921090	0.516784310	0.981510460	0.671590149	0.180528104	-88.793304443
1334800000.000000000	0.173431516	-88.423286438	0.982372165	0.012045984	0.982548833	0.071686715	0.174061179	-89.327018738
1359699968.000000000	0.166952536	-88.941787720	0.983300090	-0.572520256	0.983557224	-0.469906032	0.167481631	-89.809249878
1384600064.000000000	0.160439357	-89.422592163	0.984725952	-1.113711119	0.984184802	-1.002526879	0.161010832	-90.294471741
1409500032.000000000	0.154076070	-89.862854004	0.985342562	-1.645820856	0.985189736	-1.550131083	0.154727548	-90.713211060
1434400000.000000000	0.147879109	-90.310401917	0.985997558	-2.202920914	0.986286163	-2.077754974	0.148637891	-91.217964172
1459299968.000000000	0.141864270	-90.774002075	0.987234473	-2.735798597	0.987215996	-2.605774164	0.142834246	-91.729125977
1484199936.000000000	0.135861918	-91.451667786	0.988322258	-3.239616871	0.987802982	-3.135295630	0.137227744	-92.363288879
1509100032.000000000	0.130392864	-91.788108826	0.988591552	-3.764874697	0.988596797	-3.655161142	0.131286323	-92.707885742
1534000000.000000000	0.124917760	-92.228843689	0.989394665	-4.276929855	0.989360750	-4.164127350	0.125803083	-93.177299500
1558899968.000000000	0.119477034	-92.539772034	0.990224421	-4.772309780	0.989965975	-4.659921646	0.120316379	-93.673995972
1583800064.000000000	0.114024796	-92.829727173	0.990547299	-5.264389038	0.990827084	-5.158478260	0.114874810	-94.117225647
1608700032.000000000	0.108776882	-92.978919983	0.991170287	-5.761575222	0.991513968	-5.623667240	0.109446228	-94.485366821
1633600000.000000000	0.103737734	-93.263145447	0.992389083	-6.246758938	0.991831124	-6.119637489	0.104162671	-94.912925720
1658499968.000000000	0.099390432	-93.427024841	0.992398560	-6.707075119	0.992796302	-6.584538937	0.098530270	-95.244194031
1683399936.000000000	0.093521796	-94.160728455	0.993042350	-7.171044350	0.992756426	-7.068211555	0.094024360	-95.563552856
1708300032.000000000	0.088414222	-94.551643372	0.993542373	-7.638466358	0.993314207	-7.530016899	0.089544013	-95.958595276
1733200000.000000000	0.083398513	-94.825744629	0.993590355	-8.107410431	0.993803620	-7.975903988	0.084790803	-96.371978760
1758099968.000000000	0.078604095	-95.120536804	0.994062722	-8.588711739	0.994031310	-8.467003822	0.079917654	-96.880004883
1783000064.000000000	0.074234836	-95.238998413	0.994590759	-9.030572891	0.994335771	-8.927640915	0.075251274	-97.195930481
1807900032.000000000	0.069867417	-95.254852295	0.994487882	-9.467459679	0.994658232	-9.371288300	0.070628218	-97.476249695
1832800000.000000000	0.065528333	-95.432136536	0.994797528	-9.923311234	0.995222449	-9.827649117	0.065970816	-97.983306885
1857699968.000000000	0.060807038	-95.357650757	0.995299697	-10.367238045	0.995302260	-10.244230270	0.061127182	-98.217117310
1882599936.000000000	0.056004696	-95.254791260	0.995238185	-10.786440849	0.995102406	-10.694428444	0.056404144	-98.299598694
1907500032.000000000	0.051478386	-94.754859924	0.995160758	-11.244076729	0.995412409	-11.108942986	0.052053373	-98.211013794
1932400000.000000000	0.047126852	-94.329216003	0.995501518	-11.663046837	0.995127738	-11.538393021	0.047947843	-97.812721252
1957299968.000000000	0.043174535	-93.637817383	0.995142579	-12.057992935	0.995575666	-11.965237617	0.044244476	-97.131782532
1982200064.000000000	0.039690841	-92.983863831	0.995039046	-12.460807800	0.995339811	-12.346587181	0.040917348	-96.727432251
2007100032.000000000	0.036441345	-94.066879272	0.995723784	-12.862257004	0.995844007	-12.764043808	0.037190497	-97.875679016
2032000000.000000000	0.032731082	-93.167259216	0.996131122	-13.279683113	0.996094167	-13.176927567	0.033758227	-98.125732422
2056899968.000000000	0.028934734	-92.392707825	0.996060550	-13.718523026	0.996416092	-13.621360779	0.029618440	-98.675498962
2081799936.000000000	0.025576124	-90.932441711	0.996526897	-14.143669128	0.996760964	-14.003091812	0.025520179	-99.574073792
2106700032.000000000	0.021984439	-89.028579712	0.996765971	-14.519198418	0.996278524	-14.395025253	0.021684946	-99.011222839
2131600000.000000000	0.018261362	-87.977081299	0.996542037	-14.906147957	0.996386290	-14.829186440	0.017761478	-99.085060120
2156499968.000000000	0.013750366	-86.131828308	0.996760547	-15.327539444	0.996734083	-15.203754425	0.013663139	-100.395599365
2181400064.000000000	0.009121948	-78.859481812	0.996651173	-15.721155167	0.996920943	-15.634559631	0.009445685	-99.976501465
2206299904.000000000	0.005431180	-58.127704620	0.996379554	-16.146293640	0.996939540	-16.023149490	0.005093807	-95.536079407
2231200000.000000000	0.004469322	-9.332400322	0.996600807	-16.545448303	0.996289492	-16.407728195	0.001868991	-42.787521362
2256100096.000000000	0.006033316	21.988941193	0.996426523	-16.899291992	0.996400058	-16.826581955	0.003300526	32.310291290
2280999936.000000000	0.008580197	35.137245178	0.996119380	-17.285648346	0.996125817	-17.177165985	0.006212452	48.658721924
2305900032.000000000	0.011004572	44.820503235	0.996207476	-17.662570953	0.996381879	-17.575714111	0.009278704	59.674240112
2330800128.000000000	0.014044070	50.088752747	0.996366024	-18.038511276	0.996687472	-17.938510895	0.012702106	63.988346100
2355699968.000000000	0.017962260	53.986389160	0.996450603	-18.439352036	0.996331513	-18.332885742	0.016582189	66.411033630
2380600064.000000000	0.021703640	55.623603821	0.996637523	-18.838464737	0.996559918	-18.697690964	0.020249780	66.761108398
2405499904.000000000	0.025489841	56.773124695	0.996855438	-19.202913284	0.996903837	-19.098905563	0.023927089	65.816864014
2430400000.000000000	0.029014055	57.701862335	0.996567488	-19.593465805	0.997013927	-19.505386353	0.027189165	64.622924805
2455300096.000000000	0.032190703	58.469902039	0.996696472	-20.009471893	0.996802330	-19.876123428	0.030254757	64.128448486
2480199936.000000000	0.035253521	59.497077942	0.996128559	-20.388711929	0.996055901	-20.287694931	0.033425931	63.985305786
2505100032.000000000	0.038062915	60.271099091	0.995052516	-20.782093048	0.995526671	-20.687789917	0.036445800	63.797199249
2529999872.000000000	0.040813100	60.213558197	0.994113445	-21.173002243	0.994619071	-21.047277451	0.039451908	64.054931641
2554899968.000000000	0.043551411	59.231136322	0.993427753	-21.474563599	0.993356109	-21.356431961	0.041556921	63.811679840
2579800064.000000000	0.045198169	59.212993622	0.993580043	-21.742538452	0.993443966	-21.620010376	0.043793052	64.354927063
2604699904.000000000	0.048234832	60.207485199	0.994239032	-22.114883423	0.994178355	-22.000675201	0.047070421	65.734695435
2629600000.000000000	0.051644575	60.703300476	0.994760454	-22.457689285	0.994746447	-22.391286850	0.050593775	66.087898254
2654500096.000000000	0.055397883	60.945190430	0.994313240	-22.847082138	0.994076729	-22.778482437	0.054434348	65.894531250
2679399936.000000000	0.058744866	61.258213043	0.994018734	-23.253601074	0.994681120	-23.121519089	0.057775147	65.554199219
2704300032.000000000	0.061805479	61.573833466	0.994092643	-23.600923538	0.994085193	-23.475673676	0.060850970	64.922996521
2729200128.000000000	0.065238111	62.069568634	0.993730068	-23.943223953	0.993820131	-23.861049652	0.063860767	64.632133484
2754099968.000000000	0.068622105	62.386672974	0.993265867	-24.304704666	0.993653476	-24.204912186	0.066902861	64.663597107
2779000064.000000000	0.072001286	62.216114044	0.993292153	-24.656656265	0.993298113	-24.570343018	0.070121646	64.429206848
2803899904.000000000	0.074841246	61.472194672	0.992681801	-25.004869461	0.993368447	-24.912433624	0.072876908	64.177429199
2828800000.000000000	0.077689134	60.515636444	0.992233872	-25.353364944	0.992438018	-25.225963593	0.076085366	63.948482513
2853700096.000000000	0.080095060	59.723186493	0.992420256	-25.691076279	0.992485762	-25.567584991	0.079145014	63.628612518
2878599936.000000000	0.082430750	59.292526245	0.992385209	-25.998750687	0.992498338	-25.905038834	0.082044423	62.912216187
2903500032.000000000	0.085314400	59.276981354	0.992390573	-26.363340378	0.992838442	-26.289070129	0.084790058	62.606330872
2928399872.000000000	0.088294692	59.399726868	0.992625058	-26.717559814	0.992967606	-26.643531799	0.087419122	62.393424988
2953299968.000000000	0.092008248	59.502178192	0.992101908	-27.075513840	0.992006660	-27.003141403	0.090892695	62.048328400
2978200064.000000000	0.095212415	59.651966095	0.991818011	-27.446470261	0.992281199	-27.342813492	0.093530424	61.852401733
3003099904.000000000	0.098344825	59.541412354	0.992020249	-27.811836243	0.991847634	-27.682960510	0.096154071	61.668224335
3028000000.000000000	0.100943618	59.095195770	0.991155505	-28.111253738	0.991344035	-28.053442001	0.098917603	61.242641449
3052900096.000000000	0.103341460	58.231796265	0.990556657	-28.448032379	0.991037428	-28.341804504	0.101554438	60.676689148
3077799936.000000000	0.105424717	58.012950897	0.990583599	-28.814249039	0.990412474	-28.716232300	0.104214974	60.549781799
3102700032.000000000	0.107659422	57.561351776	0.989862561	-29.145208359	0.990139663	-29.082286835	0.106971569	60.239948273
3127600128.000000000	0.110377930	57.042209625	0.988799572	-29.494640350	0.989040017	-29.407423019	0.110172391	59.863857269
3152499968.000000000	0.112453684	56.797515869	0.989140749	-29.807964325	0.989374459	-29.701076508	0.112561576	59.656776428
3177400064.000000000	0.115435399	56.717136383	0.989174366	-30.134403229	0.989537835	-30.015537262	0.115317993	59.115444183
3202299904.000000000	0.118921340	56.791130066	0.988799810	-30.478115082	0.989211321	-30.374668121	0.118297882	58.890712738
3227200000.000000000	0.122099690	56.862186432	0.989178181	-30.791345596	0.989153087	-30.730813980	0.120788082	58.798809052
3252100096.000000000	0.124812275	56.777393341	0.989087045	-31.126216888	0.989052415	-31.053398132	0.123013817	58.442325592
3276999936.000000000	0.127740324	56.718467712	0.988649666	-31.508638382	0.989008009	-31.407873154	0.125515506	58.310058594
3301900032.000000000	0.130518079	56.275779724	0.988121986	-31.858989716	0.988095641	-31.710758209	0.128440022	57.771503448
3326799872.000000000	0.132401451	55.337730408	0.986873507	-32.152931213	0.987035275	-32.047740936	0.130668268	57.175968170
3351699968.000000000	0.133582950	55.004734039	0.986691117	-32.457084656	0.987357497	-32.355083466	0.132736892	57.547080994
3376600064.000000000	0.135780022	54.961898804	0.986948431	-32.815071106	0.987266779	-32.721897125	0.135838896	57.583129883
3401499904.000000000	0.139178351	54.636394501	0.986148357	-33.139602661	0.987071753	-33.066619873	0.139066890	56.719406128
3426400000.000000000	0.142811924	54.116001129	0.985856414	-33.475162506	0.986146927	-33.357662201	0.142253920	56.413356781
3451300096.000000000	0.145873755	53.809345245	0.985516191	-33.818691254	0.985453308	-33.709892273	0.144571513	55.827941895
3476199936.000000000	0.148358881	53.496791840	0.985548854	-34.103240967	0.985474586	-33.985187531	0.146839961	55.423103333
3501100032.000000000	0.150548711	53.300910950	0.985072434	-34.414134979	0.985608399	-34.318321228	0.148892015	55.180831909
3526000128.000000000	0.152258426	53.318386078	0.984827280	-34.741535187	0.986209691	-34.638938904	0.150525972	54.729896545
3550899968.000000000	0.154634491	53.276947021	0.984741390	-35.083274841	0.985009074	-34.971813202	0.152693525	54.557399750
3575800064.000000000	0.157396942	53.208824158	0.984027743	-35.425251007	0.984060943	-35.350189209	0.155777901	54.468463898
3600699904.000000000	0.159562722	52.738868713	0.983548462	-35.761455536	0.983843625	-35.654109955	0.158766791	54.241172791
3625600000.000000000	0.161724940	52.076385498	0.983391881	-36.066860199	0.983247757	-35.976482391	0.161219314	54.193332672
3650500096.000000000	0.164094105	51.349678040	0.982592762	-36.377784729	0.983428717	-36.262710571	0.164253190	53.748115540
3675399936.000000000	0.166517347	50.957309723	0.982275069	-36.678432465	0.982593775	-36.582096100	0.166646689	53.272869110
3700300032.000000000	0.169004455	50.645008087	0.982168138	-36.975921631	0.982531130	-36.906665802	0.168705434	52.787517548
3725199872.000000000	0.171524718	50.613574982	0.981895030	-37.310420990	0.981945753	-37.218765259	0.170589089	52.243587494
3750099968.000000000	0.173800454	50.680091858	0.981614351	-37.601432800	0.982095301	-37.504096985	0.172056675	52.026103973
3775000064.000000000	0.175666213	50.649456024	0.982005000	-37.863407135	0.982089937	-37.732692719	0.173508257	51.748409271
3799899904.000000000	0.177210182	50.844726562	0.982649267	-38.101699829	0.982482910	-38.006328583	0.175235659	51.780902863
3824800000.000000000	0.178932905	51.408638000	0.985528290	-38.369487762	0.986009598	-38.241756439	0.177475542	52.440704346
3849700096.000000000	0.183886573	52.368793488	0.993909180	-38.775382996	0.993799984	-38.662792206	0.182811856	53.632114410
3874599936.000000000	0.195153773	50.556308746	0.991098583	-40.118232727	0.991982222	-40.038585663	0.194790408	52.043781281
3899500032.000000000	0.193973303	48.060379028	0.978576481	-40.304347992	0.978801310	-40.171474457	0.194017723	49.868244171
3924400128.000000000	0.193855196	47.331134796	0.976163626	-40.368442535	0.975607872	-40.259307861	0.194112033	49.322517395
3949299968.000000000	0.194961965	46.961486816	0.974964499	-40.540164948	0.975493968	-40.429508209	0.195102930	48.888069153
3974200064.000000000	0.196995020	46.954013824	0.974783778	-40.806179047	0.975199997	-40.695953369	0.196741864	48.548480988
3999099904.000000000	0.199273869	46.991611481	0.974751472	-41.069015503	0.975414872	-40.980281830	0.198179930	48.191890717
4024000000.000000000	0.201951012	46.940200806	0.973859668	-41.352806091	0.974348009	-41.228919983	0.199912190	47.846603394
4048900096.000000000	0.203993902	46.816276550	0.974280059	-41.636753082	0.974325657	-41.528644562	0.201762915	47.707584381
