! Thu 7/20/2006 1:35:10 PM
! MODELITIHCS, INC.
# Hz S MA R 50
40000000.000000000	0.050169551	81.108512878	0.994091579	-3.213576078	0.993855917	-3.236813545	0.049828139	81.745025635
64900000.000000000	0.078604040	80.858581543	0.991304451	-4.953284740	0.990627410	-4.994777203	0.079221715	81.015510559
89800000.000000000	0.108288736	79.806907654	0.987980787	-6.781272411	0.987188973	-6.845758438	0.107771491	79.374359131
114700000.000000000	0.137482945	78.092948914	0.983324209	-8.673790932	0.982760777	-8.689728737	0.136448827	78.085723877
139600000.000000000	0.164452802	76.446487427	0.978350199	-10.423562050	0.977985030	-10.445380211	0.164427706	76.753494263
164500000.000000000	0.191354027	75.102035522	0.972967550	-12.162886620	0.973294159	-12.211894035	0.191790900	75.066986084
189400000.000000000	0.218588334	73.515991211	0.966690512	-13.947104454	0.966495081	-13.988705635	0.218629186	73.382316589
214300000.000000000	0.248261231	71.776184082	0.958956571	-15.924613953	0.958361874	-15.920036316	0.248082374	71.555450439
239200000.000000000	0.271467636	70.396301270	0.952658586	-17.440591812	0.951901987	-17.470813751	0.271593715	70.231285095
264100000.000000000	0.296830176	68.748352051	0.944517018	-19.096214294	0.944302570	-19.116157532	0.296757116	68.668243408
289000000.000000000	0.321459408	67.270835876	0.936380861	-20.745931625	0.935877172	-20.748182297	0.320828637	67.206008911
313900000.000000000	0.345299950	65.568328857	0.926910083	-22.385534286	0.926780137	-22.390478134	0.345055539	65.642616272
338800000.000000000	0.368258809	64.040245056	0.917522646	-23.971054077	0.916909482	-23.995338440	0.368569428	64.019195557
363700000.000000000	0.391020491	62.621692657	0.908481294	-25.549818039	0.907839471	-25.579822540	0.391568262	62.495227814
388600000.000000000	0.413723655	61.108600616	0.898130218	-27.143335342	0.897503253	-27.149795532	0.413319524	61.005752563
413500000.000000000	0.434938191	59.589054108	0.887488330	-28.640245438	0.887010345	-28.668748856	0.434612986	59.552848816
438400000.000000000	0.455571385	58.198371887	0.876764099	-30.143882751	0.876299888	-30.164295197	0.455421875	58.010971069
463300000.000000000	0.476164904	56.707817078	0.865882809	-31.646072388	0.865457889	-31.697351456	0.476026354	56.529644012
488200000.000000000	0.495167705	55.293731689	0.854612463	-33.100532532	0.854743921	-33.158802032	0.495396889	55.119457245
513100000.000000000	0.515491947	53.758384705	0.842336043	-34.775226593	0.842015390	-34.696544647	0.516197708	53.561592102
538000000.000000000	0.532249603	52.573329926	0.833090979	-36.041572571	0.831744819	-35.964263916	0.532569417	52.328193665
562900000.000000000	0.549657560	51.280998230	0.821622596	-37.373580933	0.821041935	-37.284660339	0.549159898	51.026317596
587800000.000000000	0.566444828	49.868026733	0.809136262	-38.714908600	0.809148610	-38.623260498	0.565943803	49.700393677
612700000.000000000	0.582727479	48.599452972	0.797664832	-39.874267578	0.797734144	-39.923469543	0.582055298	48.429958344
637600000.000000000	0.597536772	47.388679504	0.786618551	-41.131946564	0.786177898	-41.193737030	0.597708621	47.165256500
662500000.000000000	0.612321768	46.127189636	0.774707557	-42.417903900	0.774338593	-42.433429718	0.612695313	45.908367157
687400000.000000000	0.626950251	44.973106384	0.763731322	-43.660518646	0.762831339	-43.668609619	0.627572084	44.720745087
712300000.000000000	0.640800379	43.837669373	0.752630125	-44.779903412	0.751696281	-44.821117401	0.640734845	43.574810028
737200000.000000000	0.654110533	42.631362915	0.740698408	-45.993522644	0.740668074	-45.981460571	0.653959696	42.399200439
762100000.000000000	0.667038492	41.337409973	0.729215453	-47.164730072	0.728902847	-47.332202911	0.666985470	41.458709717
787000000.000000000	0.679314970	40.297035217	0.718146692	-48.284385681	0.718269097	-48.464797974	0.679796593	40.288295746
811900000.000000000	0.690273470	39.178924561	0.707080795	-49.326568604	0.706227486	-49.517726898	0.690635363	39.173610687
836800000.000000000	0.702534967	38.085525513	0.696084025	-50.493896484	0.695281602	-50.640071869	0.702131318	38.137222290
861700000.000000000	0.712938773	37.120082855	0.685558340	-51.487106323	0.684788765	-51.636821747	0.712587706	37.175567627
886600000.000000000	0.723192628	36.077781677	0.674120831	-52.466236115	0.673620468	-52.663059235	0.723308547	36.116447449
911500000.000000000	0.733864119	35.075546265	0.663502700	-53.538742065	0.663517962	-53.696704865	0.733759842	35.097999573
936400000.000000000	0.743152500	34.054832458	0.652984938	-54.536914825	0.652727084	-54.697380066	0.743170063	34.139381409
961300000.000000000	0.752142010	33.130035400	0.642196131	-55.504955292	0.642341399	-55.712486267	0.752319314	33.175849915
986200000.000000000	0.760918459	32.226814270	0.632524190	-56.442092896	0.631650611	-56.592815399	0.760796575	32.241130829
1011100000.000000000	0.769808811	31.297286987	0.622594164	-57.367511749	0.621620548	-57.526271820	0.768963509	31.325590134
1036000000.000000000	0.777610262	30.379800797	0.611754103	-58.265682220	0.612192296	-58.419677734	0.776793407	30.427499771
1060900000.000000000	0.785353423	29.458318710	0.601533740	-59.170196533	0.601693790	-59.349987030	0.785394749	29.518894196
1085800000.000000000	0.793264480	28.613361359	0.592297308	-60.045940399	0.592044616	-60.248287201	0.793212528	28.644603729
1110700000.000000000	0.799867742	27.882873535	0.582911869	-60.894443512	0.582580277	-61.055080414	0.799808201	27.781705856
1135600000.000000000	0.806850894	27.050668716	0.573404213	-61.775440216	0.572756275	-61.942226410	0.807006404	26.915071487
1160500000.000000000	0.813837374	26.276254654	0.564964048	-62.588634491	0.564040546	-62.763877869	0.814095553	26.177095413
1185400000.000000000	0.820231891	25.478914261	0.555188986	-63.357501984	0.554469728	-63.529838562	0.819576744	25.357021332
1210300000.000000000	0.826719697	24.650568008	0.545819120	-64.202735901	0.545846299	-64.366615295	0.826227109	24.534549713
1235200000.000000000	0.832708711	23.872186661	0.537079996	-64.979766846	0.536833915	-65.132034302	0.831936344	23.783657074
1260100000.000000000	0.837822577	23.123954773	0.528510474	-65.712318420	0.527903180	-65.935768127	0.837646608	22.972976685
1285000000.000000000	0.843651929	22.342624664	0.519961010	-66.511047363	0.519298480	-66.663009644	0.843210850	22.207679749
1309900000.000000000	0.848849251	21.629325867	0.511670337	-67.256164551	0.510631094	-67.404899597	0.848280979	21.479389191
1334800000.000000000	0.853648159	20.926198959	0.503234907	-67.936622620	0.503009166	-68.129493713	0.853737322	20.791254044
1359700000.000000000	0.858914702	20.202564240	0.494937485	-68.654693604	0.494682198	-68.802093506	0.858283078	20.062200546
1384600000.000000000	0.863742052	19.444799423	0.486858197	-69.416778564	0.486755628	-69.585693359	0.863827953	19.323183060
1409500000.000000000	0.868062408	18.780395508	0.479027542	-70.053710937	0.478919155	-70.267456055	0.867794272	18.672267914
1434400000.000000000	0.871684764	18.095228195	0.471130186	-70.731269836	0.470579294	-70.951240540	0.871594816	17.949367523
1459300000.000000000	0.876938597	17.441833496	0.463929820	-71.482376099	0.463133306	-71.599067688	0.876274175	17.295448303
1484200000.000000000	0.879720570	16.831565857	0.456033327	-72.031929016	0.455586216	-72.174011230	0.879159974	16.650747299
1509100000.000000000	0.884234177	16.137519836	0.448375397	-72.701736450	0.448530547	-72.899101257	0.884240633	16.012557983
1534000000.000000000	0.888443890	15.506350517	0.441387323	-73.389755249	0.441233481	-73.545776367	0.888123139	15.351937294
1558900000.000000000	0.891741513	14.840958595	0.434221463	-73.989547729	0.433729419	-74.209144592	0.891777043	14.680464745
1583800000.000000000	0.895067855	14.247676849	0.427112473	-74.623939514	0.426911317	-74.799270630	0.894945659	14.077678680
1608700000.000000000	0.897782749	13.620342255	0.420317342	-75.221649170	0.419517164	-75.383392334	0.898087797	13.460330009
1633600000.000000000	0.902184590	13.031602859	0.413706121	-75.866706848	0.412989760	-76.024230957	0.902033406	12.859612465
1658500000.000000000	0.904607549	12.426661491	0.406499420	-76.429481506	0.406407287	-76.609161377	0.905021028	12.268686295
1683400000.000000000	0.908112397	11.808068275	0.399655932	-77.048309326	0.399693078	-77.204093933	0.907568739	11.670894623
1708300000.000000000	0.911085110	11.262685776	0.393594437	-77.606285095	0.393335276	-77.805404663	0.910924652	11.080714226
1733200000.000000000	0.913311886	10.661073685	0.387034408	-78.160339355	0.386443588	-78.351066589	0.913344220	10.497373581
1758100000.000000000	0.916553553	10.096641541	0.380687192	-78.776832581	0.380195842	-78.924591064	0.915999192	9.932511330
1783000000.000000000	0.918637711	9.570433617	0.374712505	-79.276077271	0.374120736	-79.430946350	0.918786962	9.395796776
1807900000.000000000	0.922010307	9.021187782	0.368316148	-79.796104431	0.368183894	-79.995185852	0.921449762	8.848221779
1832800000.000000000	0.924274004	8.460446358	0.362278769	-80.407188416	0.362252557	-80.533584595	0.924210270	8.282692909
1857700000.000000000	0.926591823	7.888266087	0.356393488	-80.903816223	0.356078900	-81.114646912	0.926359850	7.730798721
1882600000.000000000	0.928800276	7.380394936	0.350567016	-81.417465210	0.350383347	-81.650756836	0.928566546	7.203441620
1907500000.000000000	0.930820859	6.838775158	0.345017883	-81.959442139	0.344224837	-82.129859924	0.930570087	6.665814400
1932400000.000000000	0.933153092	6.327038288	0.339341651	-82.499908447	0.338659654	-82.677490234	0.932591691	6.139229774
1957300000.000000000	0.934981119	5.840520859	0.333495539	-82.972564697	0.333439081	-83.127601624	0.934774647	5.635450363
1982200000.000000000	0.937484901	5.297282219	0.327708833	-83.518730164	0.327716821	-83.693168640	0.937089649	5.126662731
2007100000.000000000	0.938891993	4.787346363	0.322396049	-84.059638977	0.322278480	-84.246490479	0.939220664	4.602587700
2032000000.000000000	0.941188973	4.270740509	0.317042836	-84.505340576	0.316792478	-84.703094482	0.941107888	4.089855194
2056900000.000000000	0.942479161	3.785150766	0.311718713	-84.999153137	0.311333095	-85.202003479	0.942935225	3.578717470
2081800000.000000000	0.944640334	3.293797731	0.306630380	-85.615882874	0.306207716	-85.649772644	0.944473976	3.137781143
2106700000.000000000	0.946301504	2.817132235	0.301285482	-86.138488770	0.301117417	-86.113517761	0.946234630	2.609323502
2131600000.000000000	0.947949186	2.307523012	0.295934308	-86.631874084	0.296088264	-86.603363037	0.947975366	2.120931387
2156500000.000000000	0.949704262	1.838550210	0.291109448	-87.074783325	0.290816371	-87.125350952	0.949554501	1.633117914
2181400000.000000000	0.950973215	1.356769204	0.286298930	-87.534286499	0.285787760	-87.635520935	0.951184799	1.148294330
2206300000.000000000	0.952269192	0.878499687	0.281184604	-88.003723145	0.280716467	-88.025489807	0.952538185	0.689716518
2231200000.000000000	0.953432147	0.417215645	0.276286772	-88.456451416	0.275775946	-88.494750977	0.953791182	0.227076516
2256100000.000000000	0.955581041	-0.025101207	0.271567713	-88.890060425	0.271213599	-88.919425964	0.955746050	-0.212178677
2281000000.000000000	0.956820122	-0.492414206	0.266591729	-89.356872559	0.266293599	-89.365333557	0.956915953	-0.691022873
2305900000.000000000	0.958315639	-0.982844770	0.261691204	-89.818878174	0.261751118	-89.852149963	0.958424875	-1.176386833
2330800000.000000000	0.959484486	-1.398429513	0.257349607	-90.191169739	0.257098450	-90.271781921	0.959555256	-1.589788318
2355700000.000000000	0.960433753	-1.875021815	0.252830718	-90.627044678	0.252360932	-90.702850342	0.960459151	-2.074864149
2380600000.000000000	0.962006674	-2.316258907	0.248408850	-91.118064880	0.247902829	-91.120033264	0.961710642	-2.521350861
2405500000.000000000	0.962788275	-2.751474142	0.243889556	-91.527557373	0.243507438	-91.550483704	0.962625568	-2.945259094
2430400000.000000000	0.964120373	-3.190766811	0.239327317	-91.953315735	0.239173776	-91.977249146	0.963875158	-3.381474733
2455300000.000000000	0.964985558	-3.646778345	0.234944504	-92.399200439	0.234602596	-92.425498962	0.964998365	-3.839303017
2480200000.000000000	0.966301583	-4.095831394	0.230564199	-92.844337463	0.230326664	-92.888626099	0.966318615	-4.273197651
2505100000.000000000	0.966996024	-4.477190018	0.226421702	-93.210395813	0.225827679	-93.268440247	0.967060722	-4.701447964
2530000000.000000000	0.967788363	-4.926276684	0.221937943	-93.669105530	0.221833307	-93.686492920	0.968252159	-5.131855965
2554900000.000000000	0.969326346	-5.316640377	0.217825768	-94.062255859	0.217553627	-94.053413391	0.969598807	-5.527924061
2579800000.000000000	0.970103478	-5.747470856	0.213533120	-94.440208435	0.213286668	-94.434165955	0.970273099	-5.961800098
2604700000.000000000	0.971321300	-6.201398373	0.209334030	-94.864761353	0.209249029	-94.908432007	0.971604945	-6.406270981
2629600000.000000000	0.971934407	-6.608354568	0.205361251	-95.237709045	0.205063160	-95.312171936	0.972481772	-6.843791485
2654500000.000000000	0.972540610	-7.037529945	0.201251231	-95.638053894	0.200876492	-95.685989380	0.972862282	-7.250224590
2679400000.000000000	0.973155371	-7.428508282	0.197343816	-96.013008118	0.197022034	-96.007377625	0.973398196	-7.653887272
2704300000.000000000	0.974118528	-7.848773479	0.193469522	-96.357307434	0.193024290	-96.383773804	0.974523461	-8.060345650
2729200000.000000000	0.975336869	-8.237996101	0.189494670	-96.785987854	0.189304102	-96.791717529	0.975870379	-8.461239815
2754100000.000000000	0.975780777	-8.655405998	0.185433416	-97.159004211	0.185392599	-97.170272827	0.976412078	-8.878637314
2779000000.000000000	0.976864679	-9.073740005	0.181619320	-97.527229309	0.181574558	-97.626808167	0.977298579	-9.293578148
2803900000.000000000	0.977538799	-9.484709740	0.177894318	-97.877334595	0.177703456	-97.970077515	0.977968969	-9.686205864
2828800000.000000000	0.978024229	-9.900827408	0.174114696	-98.297241211	0.173695944	-98.346755981	0.978261029	-10.100717545
2853700000.000000000	0.978522321	-10.293457985	0.170285872	-98.689674377	0.170001919	-98.689689636	0.979007473	-10.514717102
2878600000.000000000	0.979143175	-10.676884651	0.166444616	-99.002487183	0.166276078	-99.027511597	0.979767127	-10.897221565
2903500000.000000000	0.979987999	-11.083175659	0.162740068	-99.392837524	0.162711428	-99.430969238	0.980350609	-11.304149628
2928400000.000000000	0.980303071	-11.482983589	0.158999986	-99.739234924	0.158967658	-99.744087219	0.980811789	-11.727603912
2953300000.000000000	0.980646125	-11.874177933	0.155379718	-100.029129028	0.155213506	-100.119216919	0.980754219	-12.115381241
2978200000.000000000	0.981169168	-12.258556366	0.151897490	-100.377853394	0.151655889	-100.469642639	0.981455398	-12.505660057
3003100000.000000000	0.981766560	-12.642094612	0.148494966	-100.749099731	0.148114882	-100.773674011	0.982205289	-12.857824326
3028000000.000000000	0.982147902	-13.044503212	0.144887927	-101.131645203	0.144730046	-101.133644104	0.982900867	-13.273962021
3052900000.000000000	0.983079721	-13.438949585	0.141129953	-101.465682983	0.141345629	-101.408149719	0.983836854	-13.662046432
3077800000.000000000	0.982805093	-13.842998505	0.137587533	-101.855903625	0.137547355	-101.918945312	0.983386633	-14.080809593
3102700000.000000000	0.983181930	-14.245084763	0.134055495	-102.232093811	0.133981334	-102.328865051	0.983748532	-14.469359398
3127600000.000000000	0.982882078	-14.604524612	0.130474983	-102.564697266	0.130363033	-102.632881165	0.983462843	-14.832049370
3152500000.000000000	0.982971130	-14.969122887	0.127043432	-102.848854065	0.126842727	-102.906539917	0.983508249	-15.198475838
3177400000.000000000	0.983610395	-15.281659126	0.123579955	-103.140350342	0.123409949	-103.144500732	0.984042801	-15.526439667
3202300000.000000000	0.983746043	-15.675195694	0.120024178	-103.435134888	0.119979118	-103.472526550	0.984470284	-15.918747902
3227200000.000000000	0.984645091	-16.043655396	0.116611420	-103.746543884	0.116672586	-103.758590698	0.985417618	-16.288841248
3252100000.000000000	0.985026036	-16.425994873	0.113345245	-103.963592529	0.113310554	-104.077095032	0.985483883	-16.657096863
3277000000.000000000	0.985494696	-16.834363937	0.110080061	-104.263717651	0.110004426	-104.372047424	0.986115929	-17.059911728
3301900000.000000000	0.985262310	-17.182569504	0.106742995	-104.590751648	0.106532011	-104.597404480	0.985962891	-17.412076950
3326800000.000000000	0.985482285	-17.553434372	0.103345705	-104.890838623	0.103257327	-104.958282471	0.986286316	-17.781108856
3351700000.000000000	0.985716732	-17.867551804	0.099917775	-105.158477783	0.099940179	-105.195106506	0.986525197	-18.111639023
3376600000.000000000	0.985765624	-18.252828598	0.096517926	-105.386955261	0.096551101	-105.450935364	0.986522980	-18.492746353
3401500000.000000000	0.986573174	-18.588563919	0.093257126	-105.546928406	0.093310098	-105.636840820	0.986847533	-18.827222824
3426400000.000000000	0.986588329	-18.935214996	0.090064848	-105.671096802	0.089951831	-105.809608459	0.986845227	-19.175415039
3451300000.000000000	0.987147493	-19.326175690	0.086910171	-105.884803772	0.086740445	-105.996124268	0.987736138	-19.555009842
3476200000.000000000	0.987842704	-19.682621002	0.083731845	-106.062820435	0.083596573	-106.103942871	0.988407269	-19.892890930
3501100000.000000000	0.988402759	-20.044378281	0.080566030	-106.250816345	0.080499572	-106.257080078	0.988764603	-20.284368515
3526000000.000000000	0.988624794	-20.421024323	0.077375862	-106.438041687	0.077442326	-106.461563110	0.989209809	-20.681657791
3550900000.000000000	0.988872976	-20.811876297	0.074265245	-106.518745422	0.074171500	-106.604850769	0.989338385	-21.055976868
3575800000.000000000	0.988692774	-21.167676926	0.071169399	-106.545524597	0.070939661	-106.637809753	0.989499377	-21.406538010
3600700000.000000000	0.988232466	-21.523122787	0.068126359	-106.609886169	0.067821710	-106.664634705	0.988732650	-21.747308731
3625600000.000000000	0.988915366	-21.868787766	0.065096069	-106.659820557	0.064862544	-106.690269470	0.989550674	-22.087388992
3650500000.000000000	0.989398390	-22.199638367	0.062027970	-106.676879883	0.062000407	-106.664451599	0.990239829	-22.432590485
3675400000.000000000	0.989408138	-22.571582794	0.058967215	-106.652404785	0.058962826	-106.700355530	0.990297008	-22.831508636
3700300000.000000000	0.989862634	-22.962818146	0.056017439	-106.614562988	0.056060620	-106.702384949	0.990770088	-23.217056274
3725200000.000000000	0.989873200	-23.333728790	0.053090216	-106.515518188	0.053063608	-106.597473145	0.990289038	-23.568426132
3750100000.000000000	0.989117671	-23.694208145	0.050144021	-106.417922974	0.050029964	-106.465202332	0.989584682	-23.934894562
3775000000.000000000	0.989570637	-24.006925583	0.047166378	-106.261856079	0.047075053	-106.245552063	0.990382222	-24.256902695
3799900000.000000000	0.990204660	-24.344137192	0.044268937	-106.020393372	0.044177245	-106.062713623	0.991146636	-24.576841354
3824800000.000000000	0.991253470	-24.720094681	0.041336861	-105.772094727	0.041294736	-105.787689209	0.992103236	-24.958539963
3849700000.000000000	0.992040046	-25.188606262	0.038383552	-105.456565857	0.038320288	-105.480682373	0.992889951	-25.433059692
3874600000.000000000	0.989880562	-25.598415375	0.035371238	-104.881301880	0.035349054	-105.002998352	0.990716961	-25.832252502
3899500000.000000000	0.989517454	-25.901586533	0.032486949	-104.121086121	0.032425834	-104.145721436	0.990030643	-26.114551544
3924400000.000000000	0.988901033	-26.235200882	0.029624900	-103.210136414	0.029468373	-103.196266174	0.989650900	-26.452989578
3949300000.000000000	0.989177795	-26.578273773	0.026719122	-101.957633972	0.026686655	-101.957725525	0.990232959	-26.787082672
3974200000.000000000	0.988969218	-26.903087616	0.023861857	-100.356216431	0.023873083	-100.487205505	0.989549203	-27.142423630
3999100000.000000000	0.989157061	-27.272686005	0.021090726	-98.144844055	0.021120786	-98.400085449	0.989551811	-27.542436600
4024000000.000000000	0.988679958	-27.623619080	0.018377944	-95.106094360	0.018333911	-95.239837646	0.989527612	-27.858295441
