CITIFILE A.01.01
#Momentum: B.10.24.175 (*) 2012.08-HF4 May  3 2013 
#Momentum Date and Time: Mon Oct 14 15:27:54 2019

NAME Momentum.SP

#  mode: RF    reference: S_50

CONSTANT NBR_OF_PORTS 2

CONSTANT NORMALIZATION 1

VAR freq MAG 389

DATA S[1,1] RI
DATA S[1,2] RI
DATA S[2,1] RI
DATA S[2,2] RI
DATA PORTZ[1] RI
DATA PORTZ[2] RI

VAR_LIST_BEGIN
	 500000000
	 504340277.8
	 508680555.6
	 513020833.3
	 517361111.1
	 521701388.9
	 526041666.7
	 530381944.4
	 534722222.2
	 539062500
	 543402777.8
	 547743055.5
	 552083333.3
	 556423611.1
	 560763888.9
	 565104166.6
	 569444444.4
	 573784722.2
	 578125000
	 582465277.8
	 586805555.5
	 591145833.3
	 595486111.1
	 599826388.9
	 604166666.6
	 608506944.4
	 612847222.2
	 617187500
	 621527777.7
	 625868055.5
	 630208333.3
	 634548611.1
	 638888888.9
	 643229166.6
	 647569444.4
	 651909722.2
	 656250000
	 660590277.7
	 664930555.5
	 669270833.3
	 673611111.1
	 682291666.6
	 690972222.2
	 699652777.7
	 708333333.3
	 717013888.8
	 725694444.4
	 734374999.9
	 743055555.5
	 751736111
	 760416666.6
	 769097222.1
	 777777777.7
	 786458333.3
	 795138888.8
	 803819444.4
	 812499999.9
	 821180555.5
	 829861111
	 838541666.6
	 847222222.1
	 855902777.7
	 864583333.2
	 873263888.8
	 881944444.3
	 890624999.9
	 899305555.4
	 907986111
	 916666666.5
	 925347222.1
	 934027777.6
	 942708333.2
	 951388888.7
	 960069444.3
	 968749999.8
	 977430555.4
	 986111110.9
	 994791666.5
	 1003472222
	 1012152778
	 1020833333
	 1029513889
	 1038194444
	 1046875000
	 1055555555
	 1064236111
	 1072916666
	 1081597222
	 1090277778
	 1098958333
	 1107638889
	 1116319444
	 1125000000
	 1133680555
	 1142361111
	 1151041666
	 1159722222
	 1168402778
	 1177083333
	 1185763889
	 1194444444
	 1203125000
	 1211805555
	 1220486111
	 1229166666
	 1237847222
	 1246527777
	 1255208333
	 1263888889
	 1272569444
	 1281250000
	 1289930555
	 1298611111
	 1307291666
	 1315972222
	 1324652777
	 1333333333
	 1359375000
	 1385416666
	 1411458333
	 1437500000
	 1463541666
	 1489583333
	 1515625000
	 1541666666
	 1567708333
	 1593750000
	 1619791666
	 1645833333
	 1671875000
	 1697916666
	 1723958333
	 1750000000
	 1776041666
	 1802083333
	 1828125000
	 1854166666
	 1880208333
	 1906250000
	 1932291666
	 1958333333
	 1984375000
	 2010416666
	 2036458333
	 2062500000
	 2088541666
	 2114583333
	 2140625000
	 2166666667
	 2192708333
	 2218750000
	 2244791667
	 2270833333
	 2296875000
	 2322916667
	 2348958333
	 2375000000
	 2401041667
	 2427083333
	 2453125000
	 2479166667
	 2505208333
	 2531250000
	 2557291667
	 2583333333
	 2609375000
	 2635416667
	 2661458333
	 2687500000
	 2713541667
	 2739583333
	 2765625000
	 2791666667
	 2817708333
	 2843750000
	 2869791667
	 2895833333
	 2921875000
	 2947916667
	 2973958333
	 3000000000
	 3039062500
	 3078125000
	 3117187500
	 3156250000
	 3195312500
	 3234375000
	 3273437500
	 3312500000
	 3351562500
	 3390625000
	 3429687500
	 3468750000
	 3507812500
	 3546875000
	 3585937500
	 3625000000
	 3664062500
	 3703125000
	 3742187500
	 3781250000
	 3820312500
	 3859375000
	 3898437500
	 3937500000
	 3976562500
	 4015625000
	 4054687500
	 4093750000
	 4132812500
	 4171875000
	 4210937500
	 4250000000
	 4269531250
	 4289062500
	 4308593750
	 4328125000
	 4347656250
	 4367187500
	 4386718750
	 4406250000
	 4425781250
	 4445312500
	 4464843750
	 4484375000
	 4503906250
	 4523437500
	 4542968750
	 4562500000
	 4582031250
	 4601562500
	 4621093750
	 4640625000
	 4660156250
	 4679687500
	 4699218750
	 4718750000
	 4738281250
	 4757812500
	 4777343750
	 4796875000
	 4816406250
	 4835937500
	 4855468750
	 4875000000
	 4894531250
	 4914062500
	 4933593750
	 4953125000
	 4972656250
	 4992187500
	 5011718750
	 5031250000
	 5050781250
	 5070312500
	 5089843750
	 5109375000
	 5128906250
	 5148437500
	 5167968750
	 5187500000
	 5207031250
	 5226562500
	 5246093750
	 5265625000
	 5285156250
	 5304687500
	 5324218750
	 5343750000
	 5363281250
	 5382812500
	 5402343750
	 5421875000
	 5441406250
	 5460937500
	 5480468750
	 5500000000
	 5519531250
	 5539062500
	 5558593750
	 5578125000
	 5597656250
	 5617187500
	 5636718750
	 5656250000
	 5675781250
	 5695312500
	 5714843750
	 5734375000
	 5753906250
	 5773437500
	 5792968750
	 5812500000
	 5832031250
	 5851562500
	 5871093750
	 5890625000
	 5910156250
	 5929687500
	 5949218750
	 5968750000
	 5988281250
	 6007812500
	 6027343750
	 6046875000
	 6066406250
	 6085937500
	 6105468750
	 6125000000
	 6144531250
	 6164062500
	 6183593750
	 6203125000
	 6222656250
	 6242187500
	 6261718750
	 6281250000
	 6300781250
	 6320312500
	 6339843750
	 6359375000
	 6378906250
	 6398437500
	 6417968750
	 6437500000
	 6457031250
	 6476562500
	 6496093750
	 6515625000
	 6535156250
	 6554687500
	 6574218750
	 6593750000
	 6613281250
	 6632812500
	 6652343750
	 6671875000
	 6691406250
	 6710937500
	 6730468750
	 6750000000
	 6776041667
	 6802083333
	 6828125000
	 6854166667
	 6880208333
	 6906250000
	 6932291667
	 6958333333
	 6984375000
	 7010416667
	 7036458333
	 7062500000
	 7088541667
	 7114583333
	 7140625000
	 7166666667
	 7192708333
	 7218750000
	 7244791666
	 7270833333
	 7296875000
	 7322916666
	 7348958333
	 7375000000
	 7401041666
	 7427083333
	 7453125000
	 7479166666
	 7505208333
	 7531250000
	 7557291666
	 7583333333
	 7609375000
	 7635416666
	 7661458333
	 7687500000
	 7713541666
	 7739583333
	 7765625000
	 7791666667
	 7817708333
	 7843750000
	 7869791667
	 7895833333
	 7921875000
	 7947916667
	 7973958333
	 8000000000
VAR_LIST_END

BEGIN
	-0.27448,	-0.20857
	-0.27833,	-0.20807
	-0.28218,	-0.20752
	-0.28604,	-0.20692
	-0.2899,	-0.20627
	-0.29376,	-0.20557
	-0.29763,	-0.20482
	-0.30149,	-0.20403
	-0.30535,	-0.20318
	-0.30922,	-0.20228
	-0.31308,	-0.20133
	-0.31694,	-0.20033
	-0.3208,	-0.19928
	-0.32466,	-0.19818
	-0.32851,	-0.19703
	-0.33236,	-0.19583
	-0.3362,	-0.19458
	-0.34004,	-0.19328
	-0.34387,	-0.19193
	-0.3477,	-0.19053
	-0.35152,	-0.18909
	-0.35533,	-0.18759
	-0.35913,	-0.18604
	-0.36292,	-0.18445
	-0.36671,	-0.1828
	-0.37048,	-0.18111
	-0.37425,	-0.17937
	-0.378,	-0.17758
	-0.38174,	-0.17574
	-0.38547,	-0.17385
	-0.38918,	-0.17191
	-0.39288,	-0.16993
	-0.39657,	-0.1679
	-0.40024,	-0.16582
	-0.4039,	-0.16369
	-0.40754,	-0.16152
	-0.41116,	-0.1593
	-0.41477,	-0.15703
	-0.41836,	-0.15471
	-0.42193,	-0.15235
	-0.42549,	-0.14994
	-0.43253,	-0.14499
	-0.4395,	-0.13986
	-0.44638,	-0.13454
	-0.45318,	-0.12905
	-0.45988,	-0.12339
	-0.46648,	-0.11755
	-0.47298,	-0.11154
	-0.47937,	-0.10536
	-0.48566,	-0.09902
	-0.49183,	-0.092514
	-0.49789,	-0.085848
	-0.50382,	-0.079025
	-0.50964,	-0.072048
	-0.51532,	-0.06492
	-0.52088,	-0.057644
	-0.5263,	-0.050223
	-0.53158,	-0.042661
	-0.53673,	-0.034961
	-0.54173,	-0.027125
	-0.54659,	-0.019158
	-0.5513,	-0.011063
	-0.55586,	-0.0028439
	-0.56026,	 0.0054965
	-0.56451,	 0.013954
	-0.5686,	 0.022526
	-0.57253,	 0.031207
	-0.57629,	 0.039995
	-0.5799,	 0.048885
	-0.58333,	 0.057874
	-0.5866,	 0.066958
	-0.58969,	 0.076133
	-0.59261,	 0.085395
	-0.59536,	 0.09474
	-0.59794,	 0.10416
	-0.60033,	 0.11366
	-0.60255,	 0.12323
	-0.60459,	 0.13287
	-0.60645,	 0.14257
	-0.60813,	 0.15234
	-0.60962,	 0.16215
	-0.61093,	 0.17202
	-0.61206,	 0.18194
	-0.61301,	 0.1919
	-0.61376,	 0.2019
	-0.61434,	 0.21194
	-0.61472,	 0.22201
	-0.61493,	 0.2321
	-0.61494,	 0.24222
	-0.61477,	 0.25236
	-0.61441,	 0.26252
	-0.61387,	 0.27269
	-0.61314,	 0.28286
	-0.61223,	 0.29305
	-0.61112,	 0.30323
	-0.60984,	 0.31341
	-0.60837,	 0.32358
	-0.60672,	 0.33375
	-0.60488,	 0.3439
	-0.60286,	 0.35403
	-0.60066,	 0.36414
	-0.59828,	 0.37423
	-0.59572,	 0.38428
	-0.59298,	 0.39431
	-0.59006,	 0.4043
	-0.58696,	 0.41426
	-0.5837,	 0.42417
	-0.58025,	 0.43404
	-0.57664,	 0.44386
	-0.57285,	 0.45363
	-0.56889,	 0.46334
	-0.56477,	 0.473
	-0.56048,	 0.4826
	-0.55602,	 0.49213
	-0.5514,	 0.5016
	-0.54662,	 0.511
	-0.54167,	 0.52032
	-0.52591,	 0.54784
	-0.50877,	 0.57462
	-0.49032,	 0.60058
	-0.47061,	 0.62567
	-0.44969,	 0.64984
	-0.42764,	 0.67302
	-0.40452,	 0.69517
	-0.38038,	 0.71625
	-0.3553,	 0.73621
	-0.32934,	 0.75502
	-0.30256,	 0.77266
	-0.27504,	 0.78909
	-0.24684,	 0.80429
	-0.21802,	 0.81825
	-0.18865,	 0.83095
	-0.1588,	 0.84238
	-0.12853,	 0.85253
	-0.097898,	 0.8614
	-0.066966,	 0.86899
	-0.035795,	 0.87529
	-0.0044441,	 0.88032
	 0.027031,	 0.88407
	 0.058574,	 0.88657
	 0.090132,	 0.88781
	 0.12165,	 0.88782
	 0.15308,	 0.8866
	 0.18438,	 0.88418
	 0.2155,	 0.88057
	 0.24639,	 0.8758
	 0.27702,	 0.86989
	 0.30733,	 0.86285
	 0.3373,	 0.85471
	 0.36687,	 0.8455
	 0.39603,	 0.83525
	 0.42473,	 0.82397
	 0.45294,	 0.81169
	 0.48063,	 0.79845
	 0.50777,	 0.78427
	 0.53433,	 0.76918
	 0.56029,	 0.75321
	 0.58562,	 0.73638
	 0.6103,	 0.71873
	 0.63431,	 0.70028
	 0.65762,	 0.68107
	 0.68023,	 0.66113
	 0.70209,	 0.64047
	 0.72322,	 0.61915
	 0.74357,	 0.59717
	 0.76315,	 0.57458
	 0.78194,	 0.55141
	 0.79992,	 0.52767
	 0.81708,	 0.50341
	 0.83342,	 0.47864
	 0.84892,	 0.45341
	 0.86358,	 0.42773
	 0.87738,	 0.40164
	 0.89033,	 0.37517
	 0.90241,	 0.34834
	 0.91361,	 0.32118
	 0.92394,	 0.29372
	 0.93339,	 0.26598
	 0.94196,	 0.238
	 0.94964,	 0.2098
	 0.95643,	 0.18141
	 0.96495,	 0.13851
	 0.97146,	 0.095337
	 0.97597,	 0.051959
	 0.97848,	 0.0084702
	 0.979,	-0.035045
	 0.97753,	-0.078503
	 0.97409,	-0.12181
	 0.9687,	-0.16491
	 0.96136,	-0.2077
	 0.95211,	-0.25011
	 0.94095,	-0.29205
	 0.92791,	-0.33346
	 0.91303,	-0.37425
	 0.89633,	-0.41435
	 0.87784,	-0.45368
	 0.85759,	-0.49217
	 0.83562,	-0.52974
	 0.81197,	-0.56634
	 0.78669,	-0.60188
	 0.7598,	-0.63629
	 0.73137,	-0.66951
	 0.70144,	-0.70148
	 0.67005,	-0.73212
	 0.63728,	-0.76137
	 0.60316,	-0.78918
	 0.56776,	-0.81547
	 0.53114,	-0.8402
	 0.49337,	-0.86331
	 0.45452,	-0.88473
	 0.41465,	-0.90443
	 0.37384,	-0.92234
	 0.33216,	-0.93843
	 0.31102,	-0.94577
	 0.28969,	-0.95264
	 0.26819,	-0.95903
	 0.24651,	-0.96494
	 0.22469,	-0.97036
	 0.20271,	-0.97529
	 0.18061,	-0.97972
	 0.15837,	-0.98365
	 0.13603,	-0.98707
	 0.11358,	-0.98998
	 0.091054,	-0.99238
	 0.068441,	-0.99427
	 0.04576,	-0.99564
	 0.023025,	-0.99649
	 0.00024682,	-0.99681
	-0.022563,	-0.99661
	-0.045391,	-0.99588
	-0.068225,	-0.99462
	-0.091054,	-0.99283
	-0.11386,	-0.99051
	-0.13664,	-0.98766
	-0.15938,	-0.98427
	-0.18206,	-0.98036
	-0.20467,	-0.97591
	-0.2272,	-0.97092
	-0.24964,	-0.96541
	-0.27196,	-0.95937
	-0.29417,	-0.95279
	-0.31625,	-0.9457
	-0.33818,	-0.93807
	-0.35994,	-0.92993
	-0.38154,	-0.92126
	-0.40295,	-0.91208
	-0.42417,	-0.90238
	-0.44517,	-0.89218
	-0.46595,	-0.88147
	-0.48649,	-0.87026
	-0.50679,	-0.85856
	-0.52682,	-0.84637
	-0.54657,	-0.83369
	-0.56604,	-0.82053
	-0.58521,	-0.8069
	-0.60407,	-0.79281
	-0.62261,	-0.77826
	-0.64081,	-0.76326
	-0.65866,	-0.74781
	-0.67615,	-0.73193
	-0.69328,	-0.71562
	-0.71002,	-0.6989
	-0.72637,	-0.68176
	-0.74231,	-0.66423
	-0.75784,	-0.64631
	-0.77295,	-0.62801
	-0.78763,	-0.60933
	-0.80186,	-0.59031
	-0.81563,	-0.57093
	-0.82895,	-0.55122
	-0.84179,	-0.53118
	-0.85415,	-0.51083
	-0.86602,	-0.49018
	-0.8774,	-0.46924
	-0.88827,	-0.44802
	-0.89864,	-0.42654
	-0.90848,	-0.40481
	-0.9178,	-0.38285
	-0.92659,	-0.36066
	-0.93484,	-0.33826
	-0.94255,	-0.31567
	-0.94971,	-0.29289
	-0.95632,	-0.26995
	-0.96237,	-0.24685
	-0.96787,	-0.22362
	-0.9728,	-0.20026
	-0.97716,	-0.17679
	-0.98096,	-0.15322
	-0.98418,	-0.12957
	-0.98683,	-0.10586
	-0.98891,	-0.0821
	-0.99041,	-0.058299
	-0.99134,	-0.034477
	-0.99169,	-0.010649
	-0.99146,	 0.013172
	-0.99067,	 0.036969
	-0.98929,	 0.060729
	-0.98735,	 0.084436
	-0.98484,	 0.10807
	-0.98176,	 0.13163
	-0.97812,	 0.15509
	-0.97391,	 0.17844
	-0.96915,	 0.20167
	-0.96384,	 0.22476
	-0.95798,	 0.2477
	-0.95157,	 0.27047
	-0.94463,	 0.29306
	-0.93715,	 0.31546
	-0.92915,	 0.33765
	-0.92063,	 0.35962
	-0.91159,	 0.38136
	-0.90204,	 0.40286
	-0.892,	 0.42409
	-0.88146,	 0.44506
	-0.87045,	 0.46575
	-0.85895,	 0.48615
	-0.84699,	 0.50625
	-0.83457,	 0.52602
	-0.8217,	 0.54548
	-0.80839,	 0.5646
	-0.79465,	 0.58337
	-0.78048,	 0.60179
	-0.76591,	 0.61985
	-0.75094,	 0.63753
	-0.73558,	 0.65483
	-0.71983,	 0.67173
	-0.70372,	 0.68824
	-0.68725,	 0.70434
	-0.67044,	 0.72003
	-0.65328,	 0.73529
	-0.63581,	 0.75013
	-0.61802,	 0.76453
	-0.59993,	 0.77849
	-0.58155,	 0.792
	-0.56289,	 0.80506
	-0.54397,	 0.81766
	-0.52479,	 0.8298
	-0.50537,	 0.84148
	-0.48572,	 0.85268
	-0.46585,	 0.8634
	-0.44578,	 0.87365
	-0.41871,	 0.88657
	-0.39133,	 0.89862
	-0.36366,	 0.9098
	-0.33573,	 0.92011
	-0.30757,	 0.92954
	-0.2792,	 0.93809
	-0.25066,	 0.94576
	-0.22198,	 0.95254
	-0.19318,	 0.95845
	-0.16428,	 0.96347
	-0.13532,	 0.96761
	-0.10632,	 0.97088
	-0.077322,	 0.97327
	-0.048331,	 0.97479
	-0.01938,	 0.97544
	 0.0095037,	 0.97524
	 0.038295,	 0.97418
	 0.066971,	 0.97228
	 0.095505,	 0.96953
	 0.12387,	 0.96596
	 0.15205,	 0.96157
	 0.18002,	 0.95636
	 0.20776,	 0.95035
	 0.23524,	 0.94356
	 0.26245,	 0.93598
	 0.28936,	 0.92763
	 0.31595,	 0.91853
	 0.3422,	 0.90868
	 0.36809,	 0.89811
	 0.39361,	 0.88682
	 0.41874,	 0.87482
	 0.44345,	 0.86213
	 0.46773,	 0.84877
	 0.49157,	 0.83476
	 0.51494,	 0.82009
	 0.53784,	 0.8048
	 0.56024,	 0.7889
	 0.58213,	 0.77239
	 0.6035,	 0.75531
	 0.62434,	 0.73766
	 0.64462,	 0.71947
	 0.66435,	 0.70074
	 0.6835,	 0.6815
	 0.70206,	 0.66177
	 0.72002,	 0.64155
	 0.73738,	 0.62088
	 0.75412,	 0.59976
	 0.77023,	 0.57822
END
BEGIN
	 0.56791,	-0.74676
	 0.5614,	-0.75038
	 0.55488,	-0.75394
	 0.54833,	-0.75742
	 0.54176,	-0.76085
	 0.53517,	-0.76421
	 0.52856,	-0.76751
	 0.52193,	-0.77074
	 0.51527,	-0.77391
	 0.5086,	-0.77701
	 0.50192,	-0.78005
	 0.49521,	-0.78303
	 0.48849,	-0.78594
	 0.48175,	-0.78878
	 0.475,	-0.79156
	 0.46823,	-0.79427
	 0.46145,	-0.79692
	 0.45466,	-0.79951
	 0.44785,	-0.80203
	 0.44103,	-0.80448
	 0.4342,	-0.80687
	 0.42737,	-0.8092
	 0.42052,	-0.81146
	 0.41366,	-0.81365
	 0.40679,	-0.81578
	 0.39992,	-0.81785
	 0.39304,	-0.81985
	 0.38615,	-0.82179
	 0.37926,	-0.82366
	 0.37236,	-0.82546
	 0.36546,	-0.82721
	 0.35856,	-0.82888
	 0.35165,	-0.8305
	 0.34474,	-0.83205
	 0.33783,	-0.83353
	 0.33092,	-0.83495
	 0.32401,	-0.83631
	 0.31709,	-0.8376
	 0.31018,	-0.83883
	 0.30327,	-0.84
	 0.29637,	-0.8411
	 0.28256,	-0.84312
	 0.26878,	-0.84488
	 0.25501,	-0.8464
	 0.24127,	-0.84767
	 0.22757,	-0.84869
	 0.2139,	-0.84947
	 0.20027,	-0.85
	 0.18669,	-0.8503
	 0.17316,	-0.85035
	 0.15968,	-0.85017
	 0.14626,	-0.84976
	 0.13291,	-0.84911
	 0.11963,	-0.84823
	 0.10642,	-0.84713
	 0.093287,	-0.8458
	 0.080233,	-0.84426
	 0.067263,	-0.84249
	 0.054382,	-0.84051
	 0.041594,	-0.83831
	 0.028901,	-0.83591
	 0.016309,	-0.83329
	 0.003819,	-0.83048
	-0.008564,	-0.82746
	-0.020837,	-0.82425
	-0.032997,	-0.82084
	-0.045041,	-0.81725
	-0.056965,	-0.81346
	-0.068767,	-0.80949
	-0.080444,	-0.80534
	-0.091993,	-0.80102
	-0.10341,	-0.79652
	-0.11469,	-0.79185
	-0.12584,	-0.78702
	-0.13685,	-0.78202
	-0.14772,	-0.77686
	-0.15845,	-0.77155
	-0.16904,	-0.76609
	-0.17948,	-0.76048
	-0.18977,	-0.75473
	-0.19991,	-0.74883
	-0.2099,	-0.7428
	-0.21973,	-0.73664
	-0.22941,	-0.73035
	-0.23894,	-0.72393
	-0.2483,	-0.7174
	-0.25751,	-0.71074
	-0.26656,	-0.70397
	-0.27544,	-0.6971
	-0.28417,	-0.69011
	-0.29273,	-0.68302
	-0.30113,	-0.67584
	-0.30937,	-0.66856
	-0.31744,	-0.66119
	-0.32534,	-0.65373
	-0.33308,	-0.64619
	-0.34066,	-0.63856
	-0.34806,	-0.63086
	-0.3553,	-0.62309
	-0.36238,	-0.61525
	-0.36929,	-0.60734
	-0.37603,	-0.59937
	-0.3826,	-0.59134
	-0.38901,	-0.58326
	-0.39525,	-0.57512
	-0.40133,	-0.56694
	-0.40724,	-0.55871
	-0.41299,	-0.55043
	-0.41857,	-0.54212
	-0.42399,	-0.53378
	-0.42925,	-0.5254
	-0.43434,	-0.51699
	-0.43927,	-0.50856
	-0.44404,	-0.5001
	-0.44865,	-0.49162
	-0.4531,	-0.48313
	-0.4574,	-0.47462
	-0.46934,	-0.44903
	-0.4799,	-0.42342
	-0.48911,	-0.39785
	-0.497,	-0.37238
	-0.50362,	-0.34709
	-0.509,	-0.32203
	-0.51319,	-0.29724
	-0.51624,	-0.2728
	-0.51818,	-0.24873
	-0.51906,	-0.22508
	-0.51894,	-0.20189
	-0.51787,	-0.17919
	-0.51587,	-0.15702
	-0.51302,	-0.13539
	-0.50935,	-0.11435
	-0.50491,	-0.093901
	-0.49975,	-0.074064
	-0.49392,	-0.054856
	-0.48746,	-0.036288
	-0.48041,	-0.01837
	-0.47281,	-0.0011104
	-0.46472,	 0.015487
	-0.45617,	 0.031419
	-0.4472,	 0.046685
	-0.43784,	 0.061286
	-0.42814,	 0.075224
	-0.41814,	 0.088503
	-0.40785,	 0.10112
	-0.39733,	 0.1131
	-0.38659,	 0.12444
	-0.37567,	 0.13515
	-0.3646,	 0.14524
	-0.35341,	 0.15472
	-0.34211,	 0.16361
	-0.33075,	 0.1719
	-0.31933,	 0.17962
	-0.30788,	 0.18678
	-0.29642,	 0.19339
	-0.28497,	 0.19947
	-0.27356,	 0.20503
	-0.26219,	 0.21008
	-0.25088,	 0.21464
	-0.23966,	 0.21872
	-0.22852,	 0.22233
	-0.2175,	 0.2255
	-0.20659,	 0.22824
	-0.19581,	 0.23055
	-0.18518,	 0.23246
	-0.1747,	 0.23398
	-0.16438,	 0.23512
	-0.15422,	 0.23589
	-0.14425,	 0.23632
	-0.13446,	 0.23641
	-0.12486,	 0.23617
	-0.11546,	 0.23563
	-0.10626,	 0.23479
	-0.097277,	 0.23367
	-0.088499,	 0.23227
	-0.079937,	 0.23062
	-0.071595,	 0.22872
	-0.063475,	 0.22658
	-0.055582,	 0.22422
	-0.047916,	 0.22165
	-0.040481,	 0.21888
	-0.029762,	 0.21437
	-0.01957,	 0.20947
	-0.0099071,	 0.20421
	-0.00077471,	 0.19863
	 0.0078264,	 0.19276
	 0.015897,	 0.18663
	 0.023438,	 0.18027
	 0.030452,	 0.17371
	 0.036944,	 0.16698
	 0.042916,	 0.16012
	 0.048375,	 0.15313
	 0.053326,	 0.14606
	 0.057775,	 0.13893
	 0.061729,	 0.13176
	 0.065197,	 0.12458
	 0.068186,	 0.11741
	 0.070707,	 0.11027
	 0.072768,	 0.10318
	 0.07438,	 0.096182
	 0.075554,	 0.089275
	 0.076302,	 0.082488
	 0.076636,	 0.075841
	 0.076569,	 0.069353
	 0.076115,	 0.063043
	 0.075288,	 0.056931
	 0.074103,	 0.051033
	 0.072576,	 0.045367
	 0.070723,	 0.03995
	 0.068563,	 0.034797
	 0.066112,	 0.029923
	 0.063389,	 0.025344
	 0.060415,	 0.021072
	 0.058839,	 0.019055
	 0.057208,	 0.01712
	 0.055525,	 0.015268
	 0.053791,	 0.0135
	 0.052011,	 0.011818
	 0.050185,	 0.010223
	 0.048318,	 0.0087163
	 0.046412,	 0.0072986
	 0.044471,	 0.0059712
	 0.042496,	 0.0047351
	 0.040491,	 0.0035911
	 0.038459,	 0.00254
	 0.036403,	 0.0015826
	 0.034327,	 0.00071962
	 0.032232,	-4.8519e-005
	 0.030123,	-0.00072128
	 0.028003,	-0.0012983
	 0.025874,	-0.0017792
	 0.02374,	-0.0021638
	 0.021604,	-0.0024521
	 0.01947,	-0.002644
	 0.01734,	-0.0027395
	 0.015219,	-0.0027389
	 0.013108,	-0.0026425
	 0.011013,	-0.0024506
	 0.0089348,	-0.0021637
	 0.0068782,	-0.0017824
	 0.0048459,	-0.0013074
	 0.0028415,	-0.00073959
	 0.00086807,	-7.9807e-005
	-0.001071,	 0.0006709
	-0.0029726,	 0.0015114
	-0.0048334,	 0.0024404
	-0.0066503,	 0.0034566
	-0.00842,	 0.0045585
	-0.01014,	 0.0057445
	-0.011806,	 0.0070129
	-0.013415,	 0.0083619
	-0.014966,	 0.0097897
	-0.016454,	 0.011294
	-0.017877,	 0.012873
	-0.019232,	 0.014524
	-0.020516,	 0.016245
	-0.021726,	 0.018034
	-0.022861,	 0.019887
	-0.023917,	 0.021803
	-0.024892,	 0.023778
	-0.025783,	 0.02581
	-0.026589,	 0.027896
	-0.027307,	 0.030032
	-0.027935,	 0.032216
	-0.028471,	 0.034445
	-0.028913,	 0.036714
	-0.02926,	 0.039021
	-0.02951,	 0.041362
	-0.029661,	 0.043734
	-0.029712,	 0.046133
	-0.029662,	 0.048556
	-0.029509,	 0.050998
	-0.029253,	 0.053457
	-0.028893,	 0.055928
	-0.028427,	 0.058408
	-0.027856,	 0.060892
	-0.027179,	 0.063377
	-0.026396,	 0.065859
	-0.025506,	 0.068334
	-0.02451,	 0.070797
	-0.023407,	 0.073246
	-0.022198,	 0.075677
	-0.020884,	 0.078084
	-0.019464,	 0.080464
	-0.01794,	 0.082814
	-0.016312,	 0.08513
	-0.014581,	 0.087406
	-0.01275,	 0.089641
	-0.010818,	 0.09183
	-0.0087867,	 0.093969
	-0.0066587,	 0.096055
	-0.0044353,	 0.098083
	-0.0021181,	 0.10005
	 0.0002907,	 0.10195
	 0.0027892,	 0.10379
	 0.005375,	 0.10555
	 0.0080459,	 0.10724
	 0.010799,	 0.10886
	 0.013633,	 0.11039
	 0.016544,	 0.11184
	 0.019529,	 0.11321
	 0.022587,	 0.11448
	 0.025712,	 0.11566
	 0.028904,	 0.11675
	 0.032158,	 0.11775
	 0.035471,	 0.11864
	 0.038841,	 0.11943
	 0.042262,	 0.12012
	 0.045733,	 0.12071
	 0.04925,	 0.12118
	 0.052808,	 0.12155
	 0.056405,	 0.12181
	 0.060037,	 0.12196
	 0.0637,	 0.12199
	 0.06739,	 0.12191
	 0.071104,	 0.12172
	 0.074837,	 0.12141
	 0.078586,	 0.12098
	 0.082348,	 0.12043
	 0.086118,	 0.11977
	 0.089892,	 0.11899
	 0.093667,	 0.11809
	 0.09744,	 0.11707
