CITIFILE A.01.01
#Momentum: B.10.24.175 (*) 2012.08-HF4 May  3 2013 
#Momentum Date and Time: Mon Oct 14 15:27:54 2019

NAME Momentum.SP

#  mode: RF    project: proj    reference: S_50

CONSTANT NBR_OF_PORTS 2

CONSTANT NORMALIZATION 1

VAR freq MAG 11

DATA S[1,1] RI
DATA S[1,2] RI
DATA S[2,1] RI
DATA S[2,2] RI
DATA PORTZ[1] RI
DATA PORTZ[2] RI

VAR_LIST_BEGIN
	 500000000
	 777777777.7
	 1333333333
	 3000000000
	 4250000000
	 4875000000
	 5500000000
	 6125000000
	 6750000000
	 7583333333
	 8000000000
VAR_LIST_END

BEGIN
	-0.27448425,	-0.208576552
	-0.503829154,	-0.0790248411
	-0.541679883,	 0.520326335
	 0.956433057,	 0.181410264
	 0.332163021,	-0.938434828
	-0.381546811,	-0.921264611
	-0.908485334,	-0.404819375
	-0.929154204,	 0.33765351
	-0.445780411,	 0.873657215
	 0.443455048,	 0.86213925
	 0.770237121,	 0.578220007
END
BEGIN
	 0.567910518,	-0.746769551
	 0.132917461,	-0.849113485
	-0.457402774,	-0.474621244
	-0.0404805951,	 0.218885296
	 0.0604146433,	 0.0210718125
	-0.00297262399,	 0.00151139095
	-0.02717938,	 0.0633768844
	 0.0457334217,	 0.120711031
	 0.160650529,	 0.0791659132
	 0.204678119,	-0.109112188
	 0.150745194,	-0.207298122
END
BEGIN
	 0.567910518,	-0.746769551
	 0.132917461,	-0.849113485
	-0.457402774,	-0.474621244
	-0.0404805951,	 0.218885296
	 0.0604146433,	 0.0210718125
	-0.00297262399,	 0.00151139095
	-0.02717938,	 0.0633768844
	 0.0457334217,	 0.120711031
	 0.160650529,	 0.0791659132
	 0.204678119,	-0.109112188
	 0.150745194,	-0.207298122
END
BEGIN
	-0.27493352,	-0.207984695
	-0.504086159,	-0.0773732459
	-0.538926927,	 0.523177488
	 0.958247037,	 0.171523401
	 0.31767075,	-0.943427839
	-0.398600293,	-0.914007109
	-0.917067642,	-0.384975972
	-0.920694213,	 0.360085876
	-0.423037575,	 0.884892653
	 0.466756739,	 0.849737916
	 0.786108367,	 0.556422265
END
BEGIN
	 50 ,	 0 
	 50 ,	 0 
	 50 ,	 0 
	 50 ,	 0 
	 50 ,	 0 
	 50 ,	 0 
	 50 ,	 0 
	 50 ,	 0 
	 50 ,	 0 
	 50 ,	 0 
	 50 ,	 0 
END
BEGIN
	 50 ,	 0 
	 50 ,	 0 
	 50 ,	 0 
	 50 ,	 0 
	 50 ,	 0 
	 50 ,	 0 
	 50 ,	 0 
	 50 ,	 0 
	 50 ,	 0 
	 50 ,	 0 
	 50 ,	 0 
END
